(0000000000.005000) vcan0 0E0#0C72000D000400F1
(0000000000.010000) vcan0 0D0#19322226B2210088
(0000000000.010000) vcan0 0E0#0C1FFFF3FFF70131
(0000000000.015000) vcan0 0E0#0C400005FFF00226
(0000000000.020000) vcan0 0D0#1BA2211C222201FD
(0000000000.020000) vcan0 0E0#0C8F002CFFFE03AA
(0000000000.025000) vcan0 0E0#0C590000FFEC0420
(0000000000.030000) vcan0 0D0#27322212D2210214
(0000000000.030000) vcan0 0E0#0C5C000F00050558
(0000000000.035000) vcan0 0E0#0CA4FFE1FFF8069F
(0000000000.040000) vcan0 0D0#1DE221180222033A
(0000000000.040000) vcan0 0E0#0C85FFF0000007E2
(0000000000.045000) vcan0 0E0#0C73FFF0FFF50891
(0000000000.050000) vcan0 0D0#2522221A02220404
(0000000000.050000) vcan0 0E0#0C95FFF9FFF60908
(0000000000.055000) vcan0 0E0#0C63000EFFFF0AA9
(0000000000.060000) vcan0 0D0#1BD22220122205CE
(0000000000.060000) vcan0 0E0#0C2AFFFCFFFB0B83
(0000000000.065000) vcan0 0E0#0CA9FFF8FFF90C6C
(0000000000.070000) vcan0 0D0#2252222A22220683
(0000000000.070000) vcan0 0E0#0C42FFEDFFFE0D66
(0000000000.075000) vcan0 0E0#0C8C0002FFF10EFD
(0000000000.080000) vcan0 0D0#1C422224E2220708
(0000000000.080000) vcan0 0E0#0C3B001DFFFD0F89
(0000000000.085000) vcan0 0E0#0CA80016000900AB
(0000000000.090000) vcan0 0D0#2CA2222B62220815
(0000000000.090000) vcan0 0E0#0C310005FFFA01E9
(0000000000.095000) vcan0 0E0#0CB8FFECFFFC0292
(0000000000.100000) vcan0 0D0#1EC22123E221092A
(0000000000.100000) vcan0 0E0#0C83001900020382
(0000000000.100000) vcan0 132#F7976703207F0000
(0000000000.100000) vcan0 3E9#45000000F80590A7
(0000000000.105000) vcan0 0E0#0C0EFFE500000453
(0000000000.110000) vcan0 0D0#2892222B52220A52
(0000000000.110000) vcan0 0E0#0C4BFFEA00010579
(0000000000.115000) vcan0 0E0#0C22FFE3FFF406E6
(0000000000.120000) vcan0 0D0#2682222872220BD0
(0000000000.120000) vcan0 0E0#0C6E0013FFFD0793
(0000000000.125000) vcan0 0E0#0C580036FFF308EB
(0000000000.130000) vcan0 0D0#2C22232D82220C52
(0000000000.130000) vcan0 0E0#0C55FFEB00100932
(0000000000.135000) vcan0 0E0#0CD4FFFF000A0ACB
(0000000000.140000) vcan0 0D0#2E62223582220D76
(0000000000.140000) vcan0 0E0#0C65FFE500060BE5
(0000000000.145000) vcan0 0E0#0C83001F00020C50
(0000000000.150000) vcan0 0D0#3492223352220E9D
(0000000000.150000) vcan0 0E0#0C8CFFFC000E0D41
(0000000000.155000) vcan0 0E0#0C6C000EFFF30E6F
(0000000000.160000) vcan0 0D0#2672232D92230F0D
(0000000000.160000) vcan0 0E0#0C78FFF500130F3C
(0000000000.165000) vcan0 0E0#0C71FFEDFFFA003C
(0000000000.170000) vcan0 0D0#2832232EF2220041
(0000000000.170000) vcan0 0E0#0C59FFF7000A0171
(0000000000.175000) vcan0 0E0#0C19FFEDFFFD028D
(0000000000.180000) vcan0 0D0#2F42232FD2220113
(0000000000.180000) vcan0 0E0#0C75FFE4000703C8
(0000000000.185000) vcan0 0E0#0C8EFFF2FFFF046D
(0000000000.190000) vcan0 0D0#3812232DF2220250
(0000000000.190000) vcan0 0E0#0C630006000405EC
(0000000000.195000) vcan0 0E0#0CC7FFE8FFF50617
(0000000000.200000) vcan0 0D0#3D8223303223034B
(0000000000.200000) vcan0 0E0#0C84FFFDFFFA07C5
(0000000000.200000) vcan0 132#F8976603207F0000
(0000000000.200000) vcan0 3E9#B800000011069132
(0000000000.205000) vcan0 0E0#0C7C0005FFEC0804
(0000000000.210000) vcan0 0D0#3A12232E422304BA
(0000000000.210000) vcan0 0E0#0C7C0019000B094F
(0000000000.215000) vcan0 0E0#0CC9FFECFFF40A0A
(0000000000.220000) vcan0 0D0#3BB2233962230593
(0000000000.220000) vcan0 0E0#0C590010FFFE0B92
(0000000000.225000) vcan0 0E0#0C6B0002000C0C07
(0000000000.230000) vcan0 0D0#3DC2223A222306BB
(0000000000.230000) vcan0 0E0#0C3C0032FFFF0DC6
(0000000000.235000) vcan0 0E0#0C29FFEAFFFA0E20
(0000000000.240000) vcan0 0D0#33722336A2230743
(0000000000.240000) vcan0 0E0#0C2FFFFC00000FD6
(0000000000.245000) vcan0 0E0#0C79FFD0FFFF0077
(0000000000.250000) vcan0 0D0#3EA223391223087A
(0000000000.250000) vcan0 0E0#0C4CFFE70001018D
(0000000000.255000) vcan0 0E0#0C40FFE300100213
(0000000000.260000) vcan0 0D0#3542233172230946
(0000000000.260000) vcan0 0E0#0C3CFFFF00090338
(0000000000.265000) vcan0 0E0#0C46FFCBFFFB04D4
(0000000000.270000) vcan0 0D0#3D22234072240A54
(0000000000.270000) vcan0 0E0#0C0A000CFFFA0560
(0000000000.275000) vcan0 0E0#0C3BFFF0FFF706F5
(0000000000.280000) vcan0 0D0#44722344B2230B9D
(0000000000.280000) vcan0 0E0#0C60000DFFE90759
(0000000000.285000) vcan0 0E0#0CA8000000040834
(0000000000.290000) vcan0 0D0#3922233952240CB9
(0000000000.290000) vcan0 0E0#0C7B0000FFFB0948
(0000000000.295000) vcan0 0E0#0C72FFF800070A05
(0000000000.300000) vcan0 0D0#3F622433C2230DB6
(0000000000.300000) vcan0 0E0#0C56FFF6FFFF0B76
(0000000000.300000) vcan0 132#F9976503207F0000
(0000000000.300000) vcan0 3E9#870100003A069269
(0000000000.305000) vcan0 0E0#0C5AFFFA00190C15
(0000000000.310000) vcan0 0D0#4482243F52240E87
(0000000000.310000) vcan0 0E0#0C8E000A00050D0B
(0000000000.315000) vcan0 0E0#0C7AFFEDFFFB0E16
(0000000000.320000) vcan0 0E0#0C72FFFD00010F0A
(0000000000.325000) vcan0 0E0#0C240012FFF800EA
(0000000000.330000) vcan0 0D0#3C722344222400A9
(0000000000.330000) vcan0 0E0#0C1A000E00050168
(0000000000.335000) vcan0 0E0#0C7DFFFBFFF402AA
(0000000000.340000) vcan0 0D0#4AE22345822401B6
(0000000000.340000) vcan0 0E0#0C1FFFFB00160383
(0000000000.345000) vcan0 0E0#0C73FFE400070412
(0000000000.350000) vcan0 0D0#3FD2244462240297
(0000000000.350000) vcan0 0E0#0C280001FFF205D1
(0000000000.355000) vcan0 0E0#0C13000BFFFD0612
(0000000000.360000) vcan0 0D0#4172234C72240384
(0000000000.360000) vcan0 0E0#0BE4FFE7FFF90779
(0000000000.365000) vcan0 0E0#0C9AFFE5FFF808C8
(0000000000.370000) vcan0 0D0#42C2233ED2230479
(0000000000.370000) vcan0 0E0#0C42000CFFF7099D
(0000000000.375000) vcan0 0E0#0C6CFFFDFFF40A79
(0000000000.380000) vcan0 0D0#4682244B12240527
(0000000000.380000) vcan0 0E0#0C4C0025FFFF0B35
(0000000000.385000) vcan0 0E0#0C70000D00060C79
(0000000000.390000) vcan0 0D0#3E52244CB224063A
(0000000000.390000) vcan0 0E0#0C1BFFF700080DA9
(0000000000.395000) vcan0 0E0#0C62000000130E41
(0000000000.400000) vcan0 0D0#3CA22457622407EA
(0000000000.400000) vcan0 0E0#0C19000300120F06
(0000000000.400000) vcan0 132#FA976403207F0000
(0000000000.400000) vcan0 3E9#800100004F06933B
(0000000000.405000) vcan0 0E0#0C3F0004000000C4
(0000000000.410000) vcan0 0D0#4AF22445F2240814
(0000000000.410000) vcan0 0E0#0C60000AFFF601F4
(0000000000.415000) vcan0 0E0#0C70001EFFF50278
(0000000000.420000) vcan0 0D0#5092254C12250917
(0000000000.420000) vcan0 0E0#0C6B000000060359
(0000000000.425000) vcan0 0E0#0C410011FFF204DD
(0000000000.430000) vcan0 0D0#5572244D02250A33
(0000000000.430000) vcan0 0E0#0C3FFFF8FFFC05C5
(0000000000.435000) vcan0 0E0#0C98FFFDFFF306D5
(0000000000.440000) vcan0 0D0#47222557E2240B41
(0000000000.440000) vcan0 0E0#0C0B0006000A074B
(0000000000.445000) vcan0 0E0#0C6AFFC9FFEC0805
(0000000000.450000) vcan0 0D0#4E72255262250C86
(0000000000.450000) vcan0 0E0#0C28001DFFFB09AC
(0000000000.455000) vcan0 0E0#0C46FFF4000B0A99
(0000000000.460000) vcan0 0D0#57422558B2240DDE
(0000000000.460000) vcan0 0E0#0BD0FFF5FFF50BA9
(0000000000.465000) vcan0 0E0#0C0AFFE800020C69
(0000000000.470000) vcan0 0D0#5302255732250E24
(0000000000.470000) vcan0 0E0#0BAB000D00130D1B
(0000000000.475000) vcan0 0E0#0C72000800000EA9
(0000000000.480000) vcan0 0D0#56422556F2240F2C
(0000000000.480000) vcan0 0E0#0C42FFED00010F13
(0000000000.485000) vcan0 0E0#0C23FFE7FFEA00FB
(0000000000.490000) vcan0 0D0#4602254C7225006C
(0000000000.490000) vcan0 0E0#0C5B0010FFFD0118
(0000000000.495000) vcan0 0E0#0C30FFFA000902F9
(0000000000.500000) vcan0 0D0#50A2254EB2250114
(0000000000.500000) vcan0 0E0#0C27000AFFFA0326
(0000000000.500000) vcan0 132#FC976103207F0000
(0000000000.500000) vcan0 3E9#4102000081069429
(0000000000.505000) vcan0 0E0#0C1F000D00000499
(0000000000.510000) vcan0 0D0#5672255792250210
(0000000000.510000) vcan0 0E0#0C3800060008051F
(0000000000.515000) vcan0 0E0#0C0DFFFB00130613
(0000000000.520000) vcan0 0D0#5BA22556922403DE
(0000000000.520000) vcan0 0E0#0C230009FFF6079A
(0000000000.525000) vcan0 0E0#0C000000FFFC0800
(0000000000.530000) vcan0 0D0#57D22556022504CE
(0000000000.530000) vcan0 0E0#0C3FFFF8FFFF098D
(0000000000.535000) vcan0 0E0#0C35FFFB000A0A1B
(0000000000.540000) vcan0 0D0#5562255D22260537
(0000000000.540000) vcan0 0E0#0C330003FFF20B84
(0000000000.545000) vcan0 0E0#0C30FFE6FFF80C08
(0000000000.550000) vcan0 0D0#57D22558D22506B9
(0000000000.550000) vcan0 0E0#0C1C000B00172D82
(0000000000.555000) vcan0 0E0#0C78FFF3000F0E8B
(0000000000.560000) vcan0 0D0#4FF22559F2240706
(0000000000.560000) vcan0 0E0#0C83000500040F5C
(0000000000.565000) vcan0 0E0#0C12FFEC0009002B
(0000000000.570000) vcan0 0D0#5B522559122608ED
(0000000000.570000) vcan0 0E0#0C26001400100110
(0000000000.575000) vcan0 0E0#0C770003000702A9
(0000000000.580000) vcan0 0D0#5252266202260990
(0000000000.580000) vcan0 0E0#0C000019FFFF033F
(0000000000.585000) vcan0 0E0#0C2D0006FFFC0494
(0000000000.590000) vcan0 0D0#62D2255F12260A47
(0000000000.590000) vcan0 0E0#0C550002FFFB0558
(0000000000.595000) vcan0 0E0#0BF2FFE40019061B
(0000000000.600000) vcan0 0D0#65522664F2250BC7
(0000000000.600000) vcan0 0E0#0C220001FFFC0782
(0000000000.600000) vcan0 132#FE975F03207F0000
(0000000000.600000) vcan0 3E9#A203000089069589
(0000000000.605000) vcan0 0E0#0BECFFDC00010837
(0000000000.610000) vcan0 0D0#5B22265C02250C54
(0000000000.610000) vcan0 0E0#0C0CFFFC000309AE
(0000000000.615000) vcan0 0E0#0C1AFFF4FFF80AEA
(0000000000.620000) vcan0 0D0#6322265762260DEF
(0000000000.620000) vcan0 0E0#0C320017000C0BAA
(0000000000.625000) vcan0 0E0#0C30FFFD000F0C1E
(0000000000.630000) vcan0 0D0#6262256292260E4F
(0000000000.630000) vcan0 0E0#0C13FFFE00030D2C
(0000000000.635000) vcan0 0E0#0C54000600040ED0
(0000000000.640000) vcan0 0D0#5E22266D32260F49
(0000000000.640000) vcan0 0E0#0BFA0002FFF90FD1
(0000000000.645000) vcan0 0E0#0BFEFFEFFFF4001F
(0000000000.650000) vcan0 0D0#5D52266492260088
(0000000000.650000) vcan0 0E0#0C4AFFFE00040141
(0000000000.655000) vcan0 0E0#0C63FFF6FFF80205
(0000000000.660000) vcan0 0D0#6742266AA23401CE
(0000000000.660000) vcan0 0E0#0C59FFFF00130375
(0000000000.665000) vcan0 0E0#0C3E002100070496
(0000000000.670000) vcan0 0D0#6072265E122602BE
(0000000000.670000) vcan0 0E0#0C17FFF9FFFC057A
(0000000000.675000) vcan0 0E0#0C3E0004FFF60695
(0000000000.680000) vcan0 0D0#68B22659A226039D
(0000000000.680000) vcan0 0E0#0C250002FFF107CC
(0000000000.685000) vcan0 0E0#0C19000700050856
(0000000000.690000) vcan0 0D0#69E22666E22604B0
(0000000000.690000) vcan0 0E0#0C3C00110000090D
(0000000000.695000) vcan0 0E0#0C39FFFB00010A9A
(0000000000.700000) vcan0 0D0#61F22663E22605B8
(0000000000.700000) vcan0 0E0#0C3B0024000E0BAB
(0000000000.700000) vcan0 132#00985C03207F0000
(0000000000.700000) vcan0 3E9#77040000B70696B2
(0000000000.705000) vcan0 0E0#0C19FFF7FFFF0C2D
(0000000000.710000) vcan0 0D0#6572266E92260651
(0000000000.710000) vcan0 0E0#0BE90013FFFA0D59
(0000000000.715000) vcan0 0E0#0C62FFD7FFFE0EBD
(0000000000.720000) vcan0 0D0#6892266DA22607E0
(0000000000.720000) vcan0 0E0#0C68000900060F0E
(0000000000.725000) vcan0 0E0#0C0F000D00050098
(0000000000.735000) vcan0 0E0#0C12FFF9FFF9020B
(0000000000.740000) vcan0 0D0#6902276A222709BD
(0000000000.740000) vcan0 0E0#0BDB000700020392
(0000000000.745000) vcan0 0E0#0C32FFF2FFFE04B2
(0000000000.750000) vcan0 0D0#6F52277442260AC1
(0000000000.750000) vcan0 0E0#0C370012FFF605B2
(0000000000.755000) vcan0 0E0#0C57FFF100010646
(0000000000.760000) vcan0 0D0#6DB22678E2260BF6
(0000000000.760000) vcan0 0E0#0BC2000AFFFC07F2
(0000000000.765000) vcan0 0E0#0C450012000D08B1
(0000000000.770000) vcan0 0D0#70C22772D2260C6F
(0000000000.770000) vcan0 0E0#0C01FFE5000709EE
(0000000000.775000) vcan0 0E0#0C40FFED000A0A78
(0000000000.780000) vcan0 0D0#79922773C2270D70
(0000000000.780000) vcan0 0E0#0BF2FFF1FFF30BF6
(0000000000.785000) vcan0 0E0#0C41FFEEFFFF0C47
(0000000000.790000) vcan0 0D0#7302277792270EBD
(0000000000.790000) vcan0 0E0#0C1EFFF3FFFA0DD0
(0000000000.795000) vcan0 0E0#0C1D0012FFFD0E5D
(0000000000.800000) vcan0 0D0#7DC2267FD2260F8B
(0000000000.800000) vcan0 0E0#0C81003100050FBD
(0000000000.800000) vcan0 132#03985803207F0000
(0000000000.800000) vcan0 3E9#83050000DD069776
(0000000000.805000) vcan0 0E0#0C360008FFF30062
(0000000000.810000) vcan0 0D0#70922776922700D5
(0000000000.810000) vcan0 0E0#0C23FFFFFFF201B1
(0000000000.815000) vcan0 0E0#0C34001200050213
(0000000000.820000) vcan0 0D0#7D522778622701A3
(0000000000.820000) vcan0 0E0#0BF6FFFB000103D4
(0000000000.825000) vcan0 0E0#0C01FFF1FFF604A4
(0000000000.830000) vcan0 0D0#72D2277492270222
(0000000000.830000) vcan0 0E0#0B8200150003059A
(0000000000.835000) vcan0 0E0#0BC90023000A063D
(0000000000.840000) vcan0 0D0#79422884E2270344
(0000000000.840000) vcan0 0E0#0C20001C00020767
(0000000000.845000) vcan0 0E0#0BFF001DFFED0815
(0000000000.850000) vcan0 0D0#75D227736227049E
(0000000000.850000) vcan0 0E0#0C070035FFFE09F6
(0000000000.855000) vcan0 0E0#0C0EFFEB00080A5A
(0000000000.860000) vcan0 0D0#7E122777222805CB
(0000000000.860000) vcan0 0E0#0BEAFFED00070BDE
(0000000000.865000) vcan0 0E0#0C08FFEF00050CE8
(0000000000.870000) vcan0 0D0#7982277E722806AF
(0000000000.870000) vcan0 0E0#0BB1FFECFFF40DB1
(0000000000.875000) vcan0 0E0#0BB6FFFB00050E28
(0000000000.880000) vcan0 0D0#7D72277792270725
(0000000000.880000) vcan0 0E0#0C16000EFFFC0F3B
(0000000000.885000) vcan0 0E0#0BD5FFDFFFEA00C3
(0000000000.890000) vcan0 0D0#86E22784122808A1
(0000000000.890000) vcan0 0E0#0C24001400010164
(0000000000.895000) vcan0 0E0#0BAA0001FFFA027A
(0000000000.900000) vcan0 0D0#7E722877D2270978
(0000000000.900000) vcan0 0E0#0BF1000100140354
(0000000000.900000) vcan0 132#06985503207F0000
(0000000000.900000) vcan0 3E9#7506000001079883
(0000000000.905000) vcan0 0E0#0C35FFED00060486
(0000000000.910000) vcan0 0D0#7D42288612280AD4
(0000000000.910000) vcan0 0E0#0BD6FFFC0009051C
(0000000000.915000) vcan0 0E0#0BEAFFEFFFF5060C
(0000000000.920000) vcan0 0D0#88722889F2270B33
(0000000000.920000) vcan0 0E0#0C0A0022FFEE077C
(0000000000.925000) vcan0 0E0#0BAFFFE90000085D
(0000000000.930000) vcan0 0D0#8692288232280C9C
(0000000000.930000) vcan0 0E0#0BC900130010099F
(0000000000.935000) vcan0 0E0#0BC80012FFF50A5A
(0000000000.940000) vcan0 0D0#7582288112280D51
(0000000000.940000) vcan0 0E0#0BB5FFEBFFF80B79
(0000000000.945000) vcan0 0E0#0B78FFFE000D0CE8
(0000000000.950000) vcan0 0D0#87C2287F32280E3E
(0000000000.950000) vcan0 0E0#0BA6FFE1000D0DDF
(0000000000.960000) vcan0 0D0#8D02288332280FA7
(0000000000.960000) vcan0 0E0#0B91002700090F1C
(0000000000.965000) vcan0 0E0#0BE4001000040028
(0000000000.970000) vcan0 0D0#8DB2288EA2280017
(0000000000.970000) vcan0 0E0#0BEF0009001201D0
(0000000000.975000) vcan0 0E0#0BCDFFED00170278
(0000000000.980000) vcan0 0D0#91622890322801E4
(0000000000.980000) vcan0 0E0#0C0B0013FFF50386
(0000000000.985000) vcan0 0E0#0C09FFE4000D043A
(0000000000.990000) vcan0 0D0#6BF3288872280229
(0000000000.990000) vcan0 0E0#0B9BFFFBFFFF05A8
(0000000000.995000) vcan0 0E0#0B9CFFE7FFE4068D
(0000000001.000000) vcan0 0D0#8C02368A9228036F
(0000000001.000000) vcan0 0E0#0BD300040003071A
(0000000001.000000) vcan0 132#09985003207F0000
(0000000001.000000) vcan0 3E9#6A0600000F079972
(0000000001.005000) vcan0 0E0#0BCB0004FFFA0845
(0000000001.010000) vcan0 0D0#8EB22893F2280496
(0000000001.010000) vcan0 0E0#0BA60012FFF909F1
(0000000001.015000) vcan0 0E0#0BE3FFDDFFFE0A1A
(0000000001.020000) vcan0 0D0#95922891F2280508
(0000000001.020000) vcan0 0E0#0BBA000400020BFE
(0000000001.025000) vcan0 0E0#0BDE0021FFF60C88
(0000000001.030000) vcan0 0D0#9A12298FA2280611
(0000000001.030000) vcan0 0E0#0C04001B00100D40
(0000000001.035000) vcan0 0E0#0BCAFFE6FFFC0EDB
(0000000001.040000) vcan0 0D0#92522990922807EB
(0000000001.040000) vcan0 0E0#0BCA0016FFF70F69
(0000000001.045000) vcan0 0E0#0BD40000FFF900E6
(0000000001.050000) vcan0 0D0#91422992C22808FC
(0000000001.050000) vcan0 0E0#0B84000B0011019B
(0000000001.055000) vcan0 0E0#0BBEFFFD000C02C1
(0000000001.060000) vcan0 0D0#8C222894F22809ED
(0000000001.060000) vcan0 0E0#0B9DFFE9FFFD03F5
(0000000001.065000) vcan0 0E0#0BD5FFFD000204D8
(0000000001.070000) vcan0 0D0#93A2299BD2280ABD
(0000000001.070000) vcan0 0E0#0B64001EFFF60560
(0000000001.075000) vcan0 0E0#0BBEFFE800000634
(0000000001.080000) vcan0 0E0#0BC3FFFE0001070C
(0000000001.085000) vcan0 0E0#0B7AFFD6FFFD082A
(0000000001.090000) vcan0 0D0#87C22999C2280C64
(0000000001.090000) vcan0 0E0#0BAFFFE6FFFD09FF
(0000000001.095000) vcan0 0E0#0B9B0003FFFD0A36
(0000000001.100000) vcan0 0D0#97A2289A62290DD4
(0000000001.100000) vcan0 0E0#0B7C000D00070BE7
(0000000001.100000) vcan0 132#0D984B03207F0000
(0000000001.100000) vcan0 3E9#DF06000036079ABD
(0000000001.105000) vcan0 0E0#0BECFFFE00090C74
(0000000001.110000) vcan0 0D0#9BC2299992290E68
(0000000001.110000) vcan0 0E0#0BFAFFF400010D15
(0000000001.115000) vcan0 0E0#0B88FFDC00150E9D
(0000000001.120000) vcan0 0D0#9C422994D2290F74
(0000000001.120000) vcan0 0E0#0BADFFF3FFF10FBC
(0000000001.125000) vcan0 0E0#0B78FFFDFFF700E0
(0000000001.130000) vcan0 0D0#95022A95022A005F
(0000000001.130000) vcan0 0E0#0B89FFECFFFE01D9
(0000000001.135000) vcan0 0E0#0BF1FFF9FFFF0222
(0000000001.140000) vcan0 0D0#99722996F22901CD
(0000000001.140000) vcan0 0E0#0BC9FFFAFFF1035C
(0000000001.145000) vcan0 0E0#0BC60016FFFE04BF
(0000000001.150000) vcan0 0D0#9F422A9BE22802A0
(0000000001.150000) vcan0 0E0#0BB5FFE1FFF305EA
(0000000001.155000) vcan0 0E0#0B9CFFF10007064D
(0000000001.160000) vcan0 0D0#9E622993222A03D2
(0000000001.160000) vcan0 0E0#0B93FFE8001007FC
(0000000001.165000) vcan0 0E0#0BA4FFF600020848
(0000000001.170000) vcan0 0D0#99322A9FD229047B
(0000000001.170000) vcan0 0E0#0B91FFFAFFFC09FB
(0000000001.175000) vcan0 0E0#0BBCFFE7FFF80AFA
(0000000001.180000) vcan0 0D0#9B9229A09229058D
(0000000001.180000) vcan0 0E0#0B56000BFFFA0BF7
(0000000001.185000) vcan0 0E0#0B4F0004FFF50C37
(0000000001.190000) vcan0 0D0#A7B22AA7A229068D
(0000000001.190000) vcan0 0E0#0B2AFFE4FFFC0D03
(0000000001.195000) vcan0 0E0#0B5E0004FFEE0E65
(0000000001.200000) vcan0 0D0#9C422AA5422A07DC
(0000000001.200000) vcan0 0E0#0B77FFF700040F1D
(0000000001.200000) vcan0 132#11984603207F0000
(0000000001.200000) vcan0 3E9#2008000055079B0A
(0000000001.205000) vcan0 0E0#0B73FFD800070055
(0000000001.210000) vcan0 0E0#0B93FFE2000001BD
(0000000001.215000) vcan0 0E0#0BB60007000302F2
(0000000001.220000) vcan0 0D0#A0A229A7122A0994
(0000000001.220000) vcan0 0E0#0B69FFE8FFFF0339
(0000000001.225000) vcan0 0E0#0B2B001D000A04C9
(0000000001.230000) vcan0 0D0#A9F22999A2290A64
(0000000001.230000) vcan0 0E0#0B98FFE8FFF90548
(0000000001.235000) vcan0 0E0#0B9FFFFBFFFA06EB
(0000000001.240000) vcan0 0D0#A5A22AAE022A0B87
(0000000001.240000) vcan0 0E0#0B86002000020755
(0000000001.245000) vcan0 0E0#0B60FFE8FFF708E0
(0000000001.250000) vcan0 0D0#9BC22AA9E2290CCB
(0000000001.250000) vcan0 0E0#0BB4FFCCFFF909F7
(0000000001.255000) vcan0 0E0#0B85001000090AFF
(0000000001.260000) vcan0 0D0#A7B22AA3522A0D50
(0000000001.260000) vcan0 0E0#0BD10002FFFB0BD5
(0000000001.265000) vcan0 0E0#0B8A000B000B0CEF
(0000000001.270000) vcan0 0D0#A0B22AA6622A0E02
(0000000001.270000) vcan0 0E0#0B70FFFA00140D13
(0000000001.275000) vcan0 0E0#0B88FFDAFFFA0E0F
(0000000001.280000) vcan0 0D0#AD322AA8822A0F3C
(0000000001.280000) vcan0 0E0#0B5FFFECFFFE0F12
(0000000001.285000) vcan0 0E0#0B40FFEE0005003D
(0000000001.290000) vcan0 0D0#AA922AA2D22A0042
(0000000001.290000) vcan0 0E0#0AFEFFE9FFF5017A
(0000000001.295000) vcan0 0E0#0B5BFFF30019027A
(0000000001.300000) vcan0 0D0#B3022AACF22A0118
(0000000001.300000) vcan0 0E0#0B90FFFEFFF30382
(0000000001.300000) vcan0 132#16984003207F0000
(0000000001.300000) vcan0 3E9#DB0800006A079C6B
(0000000001.305000) vcan0 0E0#0B78FFF7000304EE
(0000000001.310000) vcan0 0D0#AC522BB2322A0284
(0000000001.310000) vcan0 0E0#0B1F00120001050B
(0000000001.315000) vcan0 0E0#0B5DFFF5FFF60615
(0000000001.320000) vcan0 0D0#B3A22AB0822A0315
(0000000001.320000) vcan0 0E0#0B91FFC7000B0768
(0000000001.325000) vcan0 0E0#0BC2001B0000086A
(0000000001.330000) vcan0 0D0#B1322BB5A22A04C1
(0000000001.330000) vcan0 0E0#0B9CFFFC000F09E3
(0000000001.335000) vcan0 0E0#0B1B001000040AF3
(0000000001.340000) vcan0 0D0#AFD22AAFE22A0518
(0000000001.340000) vcan0 0E0#0BB8001900080BDA
(0000000001.345000) vcan0 0E0#0B2C0013FFED0CBA
(0000000001.350000) vcan0 0D0#B5822BB2E22A069A
(0000000001.350000) vcan0 0E0#0B3D0008FFFB0DF7
(0000000001.355000) vcan0 0E0#0BA4FFF5FFEF0EDF
(0000000001.360000) vcan0 0D0#AF122BA7922A075C
(0000000001.360000) vcan0 0E0#0B3C0022FFFD0FCF
(0000000001.365000) vcan0 0E0#0B7EFFE8000500EB
(0000000001.370000) vcan0 0D0#AEC22BABD22B08A0
(0000000001.370000) vcan0 0E0#0B51FFEEFFF5019E
(0000000001.375000) vcan0 0E0#0B83FFEF000D02FA
(0000000001.380000) vcan0 0D0#B7F22AB5122B09AD
(0000000001.380000) vcan0 0E0#0B900021000903AF
(0000000001.385000) vcan0 0E0#0B140002FFFA0491
(0000000001.390000) vcan0 0D0#ABC22BB8622B0AD9
(0000000001.390000) vcan0 0E0#0B030030001105C9
(0000000001.395000) vcan0 0E0#0B440020FFEA0636
(0000000001.400000) vcan0 0D0#B5722BB6722B0B0D
(0000000001.400000) vcan0 0E0#0B9CFFDD00000731
(0000000001.400000) vcan0 3E9#BE08000077079D6E
(0000000001.405000) vcan0 0E0#0B25FFF7FFF208DF
(0000000001.410000) vcan0 0D0#B6922BB3A22B0C0A
(0000000001.410000) vcan0 0E0#0AFCFFEF0005099B
(0000000001.415000) vcan0 0E0#0B05000FFFF40AC5
(0000000001.420000) vcan0 0D0#AD522BB9722B0D68
(0000000001.420000) vcan0 0E0#0B11FFEAFFFC0B44
(0000000001.425000) vcan0 0E0#0B25000400070CBD
(0000000001.430000) vcan0 0D0#C2922BB2222C0EF5
(0000000001.430000) vcan0 0E0#0B41FFFDFFF40DC5
(0000000001.435000) vcan0 0E0#0B3F002100010E39
(0000000001.440000) vcan0 0D0#B8E22BBCC22B0F78
(0000000001.440000) vcan0 0E0#0B90000DFFF60FE4
(0000000001.445000) vcan0 0E0#0B5800270000000D
(0000000001.450000) vcan0 0D0#B7322BBC222C0012
(0000000001.450000) vcan0 0E0#0ADF0019FFFE01BB
(0000000001.455000) vcan0 0E0#0AC4FFF7FFF1021A
(0000000001.460000) vcan0 0D0#B9722BBCF22B011F
(0000000001.460000) vcan0 0E0#0B4E001600120369
(0000000001.465000) vcan0 0E0#0B34FFF8FFFB046F
(0000000001.470000) vcan0 0D0#C6222CB9622C02D1
(0000000001.470000) vcan0 0E0#0B1A001C00070508
(0000000001.475000) vcan0 0E0#0B1B0007000406BE
(0000000001.480000) vcan0 0D0#C1222CBA122C03B0
(0000000001.480000) vcan0 0E0#0B530031FFFB07B0
(0000000001.485000) vcan0 0E0#0ADA0031001308B8
(0000000001.490000) vcan0 0D0#BF222CBC522C04E3
(0000000001.490000) vcan0 0E0#0A93FFF400030990
(0000000001.495000) vcan0 0E0#0B16001900030A42
(0000000001.500000) vcan0 0D0#C3722BC8322C05E7
(0000000001.500000) vcan0 0E0#0B44FFDAFFEC0B98
(0000000001.500000) vcan0 132#20983403207F0000
(0000000001.500000) vcan0 3E9#680A0000AB079E62
(0000000001.505000) vcan0 0E0#0AF9FFF8FFF60C58
(0000000001.510000) vcan0 0D0#C8222CC6122C067F
(0000000001.510000) vcan0 0E0#0AE9001E00020DFD
(0000000001.515000) vcan0 0E0#0ABFFFFF00060EA3
(0000000001.520000) vcan0 0D0#C5623BB6922C070A
(0000000001.520000) vcan0 0E0#0AF5FFE5FFEE0FF4
(0000000001.525000) vcan0 0E0#0AED0000FFFC00AA
(0000000001.530000) vcan0 0D0#BB622CC6422C081E
(0000000001.530000) vcan0 0E0#0B28FFE8000701A3
(0000000001.535000) vcan0 0E0#0B18002CFFF70254
(0000000001.540000) vcan0 0D0#CC622CC5022C095F
(0000000001.540000) vcan0 0E0#0B150002FFFD037D
(0000000001.545000) vcan0 0E0#0AD3FFF6FFF204C6
(0000000001.550000) vcan0 0D0#C0922CBDB22C0A80
(0000000001.550000) vcan0 0E0#0AD2FFF8000305C8
(0000000001.555000) vcan0 0E0#0AF0FFF8FFF606C6
(0000000001.560000) vcan0 0D0#C3A22CC1922C0B5F
(0000000001.560000) vcan0 0E0#0AF6FFF8FFF407CA
(0000000001.565000) vcan0 0E0#0B0C0008001708CB
(0000000001.570000) vcan0 0D0#C9E22BCAD22C0C79
(0000000001.570000) vcan0 0E0#0ADDFFFAFFF70977
(0000000001.575000) vcan0 0E0#0AD5FFEB000D0ACC
(0000000001.580000) vcan0 0D0#CAB22CC5A22D0DA0
(0000000001.580000) vcan0 0E0#0A940006FFF40B76
(0000000001.590000) vcan0 0D0#C8222DCB922C0E72
(0000000001.590000) vcan0 0E0#0ACCFFFD00080DEA
(0000000001.595000) vcan0 0E0#0ACF0006FFF90EA0
(0000000001.600000) vcan0 0D0#CD822CC7F22C0F3B
(0000000001.600000) vcan0 0E0#0AE0FFF1FFFE0F7C
(0000000001.600000) vcan0 132#26982D03207F0000
(0000000001.600000) vcan0 3E9#AB0A0000C9079FB4
(0000000001.605000) vcan0 0E0#0AE4FFED000A00F4
(0000000001.610000) vcan0 0D0#CD122DC3722C00D0
(0000000001.610000) vcan0 0E0#0AE4000F000C017F
(0000000001.620000) vcan0 0D0#CC522CD1A22C0110
(0000000001.620000) vcan0 0E0#0AC00000FFEF038C
(0000000001.625000) vcan0 0E0#0AECFFF3FFFF04D7
(0000000001.630000) vcan0 0D0#C9422CCE122D02FE
(0000000001.630000) vcan0 0E0#0AF4FFFD000205F6
(0000000001.635000) vcan0 0E0#0A93000BFFF80600
(0000000001.640000) vcan0 0D0#C4222DCDB22C0311
(0000000001.640000) vcan0 0E0#0A8BFFF8000B07A0
(0000000001.645000) vcan0 0E0#0AC9001400020807
(0000000001.650000) vcan0 0D0#D0322DD3422D0492
(0000000001.650000) vcan0 0E0#0AA5FFE9FFF50916
(0000000001.655000) vcan0 0E0#0AB9002C000C0A4D
(0000000001.660000) vcan0 0D0#D2822CD0D22C05ED
(0000000001.660000) vcan0 0E0#0A9A000900010B10
(0000000001.665000) vcan0 0E0#0AE0FFF5FFF90CEC
(0000000001.670000) vcan0 0D0#C8F22CCA022D061D
(0000000001.670000) vcan0 0E0#0AAAFFED000A0DA6
(0000000001.675000) vcan0 0E0#0A76FFEE00040E3F
(0000000001.680000) vcan0 0D0#D2522DD4222D07D3
(0000000001.680000) vcan0 0E0#0AE70004FFFF0F0D
(0000000001.685000) vcan0 0E0#0A8DFFEBFFF2001F
(0000000001.690000) vcan0 0D0#D4122DD4222D08EB
(0000000001.690000) vcan0 0E0#0AA1FFD50003011F
(0000000001.695000) vcan0 0E0#0AD60002000C02A7
(0000000001.700000) vcan0 0D0#DB022DCDC22C0946
(0000000001.700000) vcan0 0E0#0AC40014000C036E
(0000000001.700000) vcan0 132#2C982603207F0000
(0000000001.700000) vcan0 3E9#500C0000E60790AC
(0000000001.705000) vcan0 0E0#0AC4FFF8FFF204E8
(0000000001.710000) vcan0 0D0#D0B22DD2722D0A21
(0000000001.710000) vcan0 0E0#0A4CFFCF0004059D
(0000000001.715000) vcan0 0E0#0A90FFF2FFF4069D
(0000000001.720000) vcan0 0D0#D6F22CD5022E0BBD
(0000000001.720000) vcan0 0E0#0AB3FFF4000B0744
(0000000001.725000) vcan0 0E0#0ACA0014FFF908AF
(0000000001.730000) vcan0 0D0#D8922DD9422D0C9B
(0000000001.730000) vcan0 0E0#0A640028FFF4093F
(0000000001.735000) vcan0 0E0#0AB0FFF800000A53
(0000000001.740000) vcan0 0D0#D9B22DD5E22C0D9D
(0000000001.740000) vcan0 0E0#0A1E001A00050B07
(0000000001.745000) vcan0 0E0#0AB9000DFFFE0CA0
(0000000001.750000) vcan0 0D0#DC422DD4F22D0E8B
(0000000001.750000) vcan0 0E0#0A790014FFFB0D08
(0000000001.755000) vcan0 0E0#0AAFFFFAFFFD0E06
(0000000001.760000) vcan0 0D0#DD422ED9022D0FB2
(0000000001.760000) vcan0 0E0#0A7A001A00070F96
(0000000001.765000) vcan0 0E0#0A630012FFF20064
(0000000001.770000) vcan0 0D0#DA122DD8222E0004
(0000000001.770000) vcan0 0E0#0A9F003300080143
(0000000001.775000) vcan0 0E0#0A780003000D027D
(0000000001.780000) vcan0 0D0#DB622ED8D22D01CA
(0000000001.780000) vcan0 0E0#0AA3002A000703CD
(0000000001.785000) vcan0 0E0#0A6C000D00060459
(0000000001.790000) vcan0 0D0#E1922DE0822D02AA
(0000000001.790000) vcan0 0E0#0AC6FFF4FFFB05BD
(0000000001.795000) vcan0 0E0#0A99FFF60000065E
(0000000001.800000) vcan0 0D0#DDF22DD8922D0349
(0000000001.800000) vcan0 0E0#0A62FFF5000407D8
(0000000001.800000) vcan0 132#32981E03207F0000
(0000000001.800000) vcan0 3E9#550C0000F5079111
(0000000001.805000) vcan0 0E0#0A88FFFF000108E7
(0000000001.810000) vcan0 0D0#DA522ED8922D04A2
(0000000001.810000) vcan0 0E0#0AD3FFFE0003897B
(0000000001.815000) vcan0 0E0#09FF000AFFFE0A24
(0000000001.820000) vcan0 0D0#DE522EE0E22D056D
(0000000001.820000) vcan0 0E0#0A2DFFFEFFF30BE2
(0000000001.825000) vcan0 0E0#0A59FFDF00070CCE
(0000000001.830000) vcan0 0D0#DBD22DDCE23D0669
(0000000001.830000) vcan0 0E0#0A670006FFFC0D64
(0000000001.835000) vcan0 0E0#0AA8001FFFFB0EAB
(0000000001.840000) vcan0 0E0#0A45FFF5FFFC0F61
(0000000001.845000) vcan0 0E0#0A6D0016FFFE00DE
(0000000001.850000) vcan0 0D0#E8222EDD622E08B1
(0000000001.850000) vcan0 0E0#0A5FFFEFFFF20124
(0000000001.855000) vcan0 0E0#0A78FFF200070203
(0000000001.860000) vcan0 0D0#DEF22DE3322E0911
(0000000001.860000) vcan0 0E0#0A60FFD8000603BD
(0000000001.865000) vcan0 0E0#0A120027FFF80444
(0000000001.870000) vcan0 0D0#DD622EE6422E0A40
(0000000001.870000) vcan0 0E0#09EA0018FFEE057E
(0000000001.875000) vcan0 0E0#0A150013FFF6067F
(0000000001.880000) vcan0 0D0#E5622EDBE22D0B5D
(0000000001.880000) vcan0 0E0#0A27002FFFF507BB
(0000000001.885000) vcan0 0E0#0A00FFDCFFF0081D
(0000000001.890000) vcan0 0D0#DE722EE8222E0C58
(0000000001.890000) vcan0 0E0#0A41FFF8FFF90904
(0000000001.895000) vcan0 0E0#0A76FFE400020A15
(0000000001.900000) vcan0 0D0#E7322EE2122E0DDF
(0000000001.900000) vcan0 0E0#0AB60002FFF30B65
(0000000001.900000) vcan0 132#38981603207F0000
(0000000001.900000) vcan0 3E9#500D000013089272
(0000000001.905000) vcan0 0E0#0A57FFF900000C97
(0000000001.910000) vcan0 0D0#E0B22EE3022E0E53
(0000000001.910000) vcan0 0E0#09E4FFF400020DEC
(0000000001.915000) vcan0 0E0#09FE0006FFFF0E88
(0000000001.920000) vcan0 0D0#EAB22EE7922E0FB0
(0000000001.920000) vcan0 0E0#0A1E001800010F79
(0000000001.925000) vcan0 0E0#09E7FFDDFFFE0077
(0000000001.930000) vcan0 0D0#E0822EE6022F0056
(0000000001.930000) vcan0 0E0#0A4FFFEE00070120
(0000000001.935000) vcan0 0E0#0A12FFEEFFF40232
(0000000001.940000) vcan0 0D0#E5322EE4E22E0118
(0000000001.940000) vcan0 0E0#0A200004000A0323
(0000000001.945000) vcan0 0E0#09FAFFE5FFEE0419
(0000000001.950000) vcan0 0D0#F1922FE3922F02FD
(0000000001.950000) vcan0 0E0#09D7FFF50007050E
(0000000001.955000) vcan0 0E0#0A4A0005000006EB
(0000000001.960000) vcan0 0D0#E7D02EE8C22E03A2
(0000000001.960000) vcan0 0E0#0A18000C000A07FD
(0000000001.965000) vcan0 0E0#0A68FFFB000A08FF
(0000000001.970000) vcan0 0D0#EA522FE7422F0439
(0000000001.970000) vcan0 0E0#09E1FFF6000A09A6
(0000000001.975000) vcan0 0E0#0A32000B00040AC9
(0000000001.980000) vcan0 0D0#EE122FEAB22E0596
(0000000001.980000) vcan0 0E0#0A18000BFFEF0BAC
(0000000001.985000) vcan0 0E0#0A57FFF400070C21
(0000000001.990000) vcan0 0D0#EAF22EF0F22E0694
(0000000001.990000) vcan0 0E0#0A15FFF4FFEE0DAE
(0000000001.995000) vcan0 0E0#0A13000700090E3A
(0000000002.000000) vcan0 0D0#F1F22EF1C22E07B0
(0000000002.000000) vcan0 0E0#09FBFFF300030FBF
(0000000002.000000) vcan0 132#3F980D03207F0000
(0000000002.000000) vcan0 3E9#D90D0000280893E9
(0000000002.005000) vcan0 0E0#09EC0013000600BA
(0000000002.010000) vcan0 0D0#F4C22EF6822F08DB
(0000000002.010000) vcan0 0E0#09CCFFF300090128
(0000000002.015000) vcan0 0E0#0A44FFF80004025F
(0000000002.020000) vcan0 0D0#F2F22EE9822F0928
(0000000002.020000) vcan0 0E0#0A24FFEAFFF403D4
(0000000002.025000) vcan0 0E0#09CCFFE40007047F
(0000000002.030000) vcan0 0D0#F3322FEF022F0A2D
(0000000002.030000) vcan0 0E0#0A48FFF2FFFA05BB
(0000000002.035000) vcan0 0E0#09C3FFFEFFFE06E4
(0000000002.040000) vcan0 0D0#F3022FF1122F0BC4
(0000000002.040000) vcan0 0E0#09EA0003FFE507C9
(0000000002.045000) vcan0 0E0#0A340004FFFA0811
(0000000002.050000) vcan0 0D0#FA122FF7522F0C05
(0000000002.050000) vcan0 0E0#0A47FFF10008092C
(0000000002.055000) vcan0 0E0#09B0FFE6FFF30A5C
(0000000002.060000) vcan0 0D0#F52240EEB22F0DEE
(0000000002.060000) vcan0 0E0#09B80013FFFD0B56
(0000000002.065000) vcan0 0E0#0A1E000A00050C71
(0000000002.070000) vcan0 0D0#F8122FFD522F0E3E
(0000000002.070000) vcan0 0E0#0A240007FFF20D8C
(0000000002.075000) vcan0 0E0#0996FFCE00140EFE
(0000000002.080000) vcan0 0D0#03932FF3A22F0F24
(0000000002.080000) vcan0 0E0#09D5FFF2FFF80FEB
(0000000002.085000) vcan0 0E0#09E00016000D00E8
(0000000002.090000) vcan0 0D0#FB622F01632F00A8
(0000000002.090000) vcan0 0E0#09B9FFF6FFEC01ED
(0000000002.095000) vcan0 0E0#09EC000C00040255
(0000000002.100000) vcan0 0D0#F80230FB622F0142
(0000000002.100000) vcan0 0E0#09F2001BFFFC03B8
(0000000002.100000) vcan0 132#46980403207F0000
(0000000002.100000) vcan0 3E9#1B0F00004D08942A
(0000000002.105000) vcan0 0E0#09C6FFF200080416
(0000000002.110000) vcan0 0D0#FAE22FFBA22F0235
(0000000002.110000) vcan0 0E0#0992000BFFF30508
(0000000002.115000) vcan0 0E0#09910021FFFF0663
(0000000002.120000) vcan0 0D0#06832FF8622F031E
(0000000002.120000) vcan0 0E0#0997FFFC000B0712
(0000000002.125000) vcan0 0E0#09E2FFF3000308B4
(0000000002.130000) vcan0 0D0#F9D22FFAD22F0475
(0000000002.130000) vcan0 0E0#09C0000D0005096C
(0000000002.135000) vcan0 0E0#09BBFFEEFFFC0AA3
(0000000002.140000) vcan0 0D0#03F32FF8D22F05E0
(0000000002.140000) vcan0 0E0#0984FFFEFFFB0B9B
(0000000002.145000) vcan0 0E0#09ECFFFD000A0CA0
(0000000002.150000) vcan0 0D0#FC922FFBC22F06AE
(0000000002.150000) vcan0 0E0#09880018000B0D5B
(0000000002.155000) vcan0 0E0#0992000B00050E9E
(0000000002.160000) vcan0 0D0#02A32FF6623007C9
(0000000002.160000) vcan0 0E0#095AFFE8FFF60FFF
(0000000002.165000) vcan0 0E0#096EFFE6001300B1
(0000000002.170000) vcan0 0D0#005330FF922F0808
(0000000002.170000) vcan0 0E0#09A1FFF4000E0114
(0000000002.175000) vcan0 0E0#096BFFEFFFF202DD
(0000000002.180000) vcan0 0D0#F9C22F05833009A6
(0000000002.180000) vcan0 0E0#0978000900000307
(0000000002.185000) vcan0 0E0#092C0009000304C1
(0000000002.190000) vcan0 0D0#14A32F09A3300AAB
(0000000002.190000) vcan0 0E0#097F003000050589
(0000000002.195000) vcan0 0E0#0961000CFFF20691
(0000000002.200000) vcan0 0D0#FC82300353300BBB
(0000000002.200000) vcan0 0E0#094EFFF8000C070D
(0000000002.200000) vcan0 132#4E98FB02207F0000
(0000000002.200000) vcan0 3E9#8B0F000062089599
(0000000002.205000) vcan0 0E0#09D40014FFFA0897
(0000000002.210000) vcan0 0D0#0A333008932F0CD9
(0000000002.210000) vcan0 0E0#09A6FFF4FFF4091D
(0000000002.215000) vcan0 0E0#09D0FFE8000A0A2B
(0000000002.220000) vcan0 0D0#0CE32F0653300D23
(0000000002.220000) vcan0 0E0#09420012FFF90BAC
(0000000002.225000) vcan0 0E0#0966000400070C9D
(0000000002.230000) vcan0 0D0#F8F22F0723300E43
(0000000002.230000) vcan0 0E0#096F000900080D20
(0000000002.235000) vcan0 0E0#096BFFEEFFFE0EAB
(0000000002.240000) vcan0 0D0#0063300973300FC8
(0000000002.240000) vcan0 0E0#0984FFE300080FBD
(0000000002.245000) vcan0 0E0#09270000000F0003
(0000000002.250000) vcan0 0D0#08C3300C533000CA
(0000000002.250000) vcan0 0E0#09ACFFEDFFF9016C
(0000000002.255000) vcan0 0E0#0989000900110268
(0000000002.260000) vcan0 0D0#0563300CB3300129
(0000000002.260000) vcan0 0E0#0923FFFBFFFE0386
(0000000002.265000) vcan0 0E0#09530032FFFE04F6
(0000000002.270000) vcan0 0D0#0A033005A3300233
(0000000002.270000) vcan0 0E0#097AFFF8000E0596
(0000000002.275000) vcan0 0E0#096DFFF100000684
(0000000002.280000) vcan0 0D0#0A43300C333103EB
(0000000002.280000) vcan0 0E0#0938001FFFFF0720
(0000000002.285000) vcan0 0E0#0924001000060812
(0000000002.290000) vcan0 0D0#0B1330FFA23004CE
(0000000002.290000) vcan0 0E0#0922FFE0000A09D0
(0000000002.295000) vcan0 0E0#095C0009FFF90A25
(0000000002.300000) vcan0 0D0#0D93300EF3300504
(0000000002.300000) vcan0 0E0#0925FFD6FFFD0B36
(0000000002.300000) vcan0 132#5598F102207F0000
(0000000002.300000) vcan0 3E9#931000008308961B
(0000000002.305000) vcan0 0E0#08E7FFF300050C6B
(0000000002.310000) vcan0 0D0#11133114C330065D
(0000000002.310000) vcan0 0E0#0953FFF700020D05
(0000000002.315000) vcan0 0E0#093F0001001C0E46
(0000000002.320000) vcan0 0D0#06733013933007E9
(0000000002.320000) vcan0 0E0#0909FFEB00000F92
(0000000002.325000) vcan0 0E0#09210031FFFC0040
(0000000002.330000) vcan0 0D0#0C23310A3331088C
(0000000002.330000) vcan0 0E0#0910FFC5FFF90129
(0000000002.335000) vcan0 0E0#09170008000C024D
(0000000002.340000) vcan0 0D0#12333108933009A6
(0000000002.340000) vcan0 0E0#09350003FFFC033E
(0000000002.345000) vcan0 0E0#08FFFFEC000104FD
(0000000002.350000) vcan0 0D0#0893300B93300A08
(0000000002.350000) vcan0 0E0#094F0033FFF405AF
(0000000002.355000) vcan0 0E0#08DB000EFFFD0652
(0000000002.360000) vcan0 0D0#0B23311623310BCA
(0000000002.360000) vcan0 0E0#08F4FFF2FFFB07E4
(0000000002.365000) vcan0 0E0#0906FFEAFFFF08D6
(0000000002.370000) vcan0 0D0#0EC3300D43310C4C
(0000000002.370000) vcan0 0E0#090B00120004095D
(0000000002.375000) vcan0 0E0#098BFFE8FFF40AAC
(0000000002.380000) vcan0 0D0#10E3301AE3300DAC
(0000000002.380000) vcan0 0E0#0906000E00030B20
(0000000002.385000) vcan0 0E0#0908000500070CFB
(0000000002.390000) vcan0 0D0#0AE3301F93310E8D
(0000000002.390000) vcan0 0E0#0900000400000D88
(0000000002.395000) vcan0 0E0#091EFFF6000A0EFC
(0000000002.400000) vcan0 0D0#0423311163310F76
(0000000002.400000) vcan0 0E0#08C00009FFF00FBC
(0000000002.400000) vcan0 132#5D98E802207F0000
(0000000002.400000) vcan0 3E9#691100008D089788
(0000000002.405000) vcan0 0E0#08F1FFFBFFFF00D8
(0000000002.410000) vcan0 0D0#0DD3300FF33000A0
(0000000002.410000) vcan0 0E0#0923000700040161
(0000000002.415000) vcan0 0E0#08AC0018FFFC0285
(0000000002.420000) vcan0 0D0#0F93310D8331011E
(0000000002.420000) vcan0 0E0#08FDFFF7FFF90397
(0000000002.425000) vcan0 0E0#08A3FFD7FFFD0464
(0000000002.430000) vcan0 0D0#1A533118D33102CA
(0000000002.430000) vcan0 0E0#0920FFDFFFFB0567
(0000000002.435000) vcan0 0E0#08DCFFF400150605
(0000000002.440000) vcan0 0D0#18F330149331033D
(0000000002.440000) vcan0 0E0#09100008FFEC07B3
(0000000002.445000) vcan0 0E0#08BCFFF60006089C
(0000000002.450000) vcan0 0D0#1A233116733104ED
(0000000002.450000) vcan0 0E0#08E9FFFEFFF4096E
(0000000002.455000) vcan0 0E0#08C7000200040AFD
(0000000002.460000) vcan0 0D0#1DC331164331058E
(0000000002.460000) vcan0 0E0#08F7FFED00080BC7
(0000000002.465000) vcan0 0E0#08A6FFE1000C0C69
(0000000002.470000) vcan0 0D0#1D43321293310641
(0000000002.470000) vcan0 0E0#08FD000100040DAE
(0000000002.475000) vcan0 0E0#090B000EFFFA0EFA
(0000000002.480000) vcan0 0D0#1E433120F331071D
(0000000002.480000) vcan0 0E0#08C1FFF5FFFD0F32
(0000000002.485000) vcan0 0E0#08F2001AFFFD0013
(0000000002.490000) vcan0 0D0#18733129533108B8
(0000000002.490000) vcan0 0E0#0906000800040162
(0000000002.495000) vcan0 0E0#08D60017FFF1023C
(0000000002.500000) vcan0 0D0#1CF3301643310919
(0000000002.500000) vcan0 0E0#08CF002000050323
(0000000002.500000) vcan0 132#6598DD02207F0000
(0000000002.500000) vcan0 3E9#D51200009E0898A1
(0000000002.505000) vcan0 0E0#08B1FFF200060407
(0000000002.510000) vcan0 0D0#1F03321D73310ACF
(0000000002.510000) vcan0 0E0#08F9FFF9000405FE
(0000000002.515000) vcan0 0E0#08D000280011069E
(0000000002.520000) vcan0 0D0#1D63311ED3310BE4
(0000000002.520000) vcan0 0E0#0919FFEFFFF80796
(0000000002.525000) vcan0 0E0#0886000800000847
(0000000002.530000) vcan0 0D0#1763312383310C87
(0000000002.530000) vcan0 0E0#08B3FFF50000094B
(0000000002.535000) vcan0 0E0#08B1FFEC00020A5C
(0000000002.540000) vcan0 0D0#12D3311F03320D9B
(0000000002.540000) vcan0 0E0#08B8000FFFFE0B28
(0000000002.545000) vcan0 0E0#08A4002CFFEB0C45
(0000000002.550000) vcan0 0D0#1F23312043320EF1
(0000000002.550000) vcan0 0E0#08E2FFFC000B0DB2
(0000000002.555000) vcan0 0E0#08B50025FFFB0E98
(0000000002.560000) vcan0 0D0#1B23321F43320F3C
(0000000002.560000) vcan0 0E0#08AA000600090FD0
(0000000002.565000) vcan0 0E0#086A0011FFFE005F
(0000000002.570000) vcan0 0D0#1E03321C03320041
(0000000002.570000) vcan0 0E0#0897FFFF000D010E
(0000000002.575000) vcan0 0E0#08BA0029FFEC025E
(0000000002.580000) vcan0 0D0#1AF3311CE3310103
(0000000002.580000) vcan0 0E0#0852FFFB0002036A
(0000000002.585000) vcan0 0E0#08BB0016FFF90484
(0000000002.590000) vcan0 0D0#20433217633302C6
(0000000002.590000) vcan0 0E0#0875FFEFFFE605DD
(0000000002.595000) vcan0 0E0#07F2FFE7000106F4
(0000000002.600000) vcan0 0D0#28D33127D33203C8
(0000000002.600000) vcan0 0E0#085CFFF8FFF207CB
(0000000002.600000) vcan0 132#6E98D302207F0000
(0000000002.600000) vcan0 3E9#2E140000B0089990
(0000000002.605000) vcan0 0E0#089C0006FFFD08F7
(0000000002.610000) vcan0 0D0#1E03322463320496
(0000000002.610000) vcan0 0E0#08D60010FFE909E9
(0000000002.615000) vcan0 0E0#08A5001300070A65
(0000000002.620000) vcan0 0D0#2193322DE33105A0
(0000000002.620000) vcan0 0E0#0885001A000F0B0B
(0000000002.625000) vcan0 0E0#0884FFFCFFF90C2A
(0000000002.630000) vcan0 0D0#27F3312363320673
(0000000002.630000) vcan0 0E0#0890001A00020D29
(0000000002.635000) vcan0 0E0#086C0024FFFA0EE1
(0000000002.640000) vcan0 0D0#28133323C33207CE
(0000000002.640000) vcan0 0E0#086DFFE100030FDD
(0000000002.645000) vcan0 0E0#08070028000F00A0
(0000000002.650000) vcan0 0D0#2573322AE33208B0
(0000000002.650000) vcan0 0E0#085CFFF100050191
(0000000002.655000) vcan0 0E0#0867FFF600140246
(0000000002.660000) vcan0 0D0#275332257332098F
(0000000002.660000) vcan0 0E0#086D0008FFF5031D
(0000000002.665000) vcan0 0E0#0804000D000304F0
(0000000002.670000) vcan0 0D0#29A3322693320A4F
(0000000002.670000) vcan0 0E0#08060006000C05E4
(0000000002.675000) vcan0 0E0#082D0017000406C9
(0000000002.680000) vcan0 0D0#1B53322B33330B01
(0000000002.680000) vcan0 0E0#083AFFDEFFF807DB
(0000000002.685000) vcan0 0E0#08910003FFFD086D
(0000000002.690000) vcan0 0D0#22B3322763320C35
(0000000002.690000) vcan0 0E0#084D0021000309F5
(0000000002.695000) vcan0 0E0#07EBFFFC00040A52
(0000000002.700000) vcan0 0D0#3163322463320D28
(0000000002.700000) vcan0 0E0#07F0FFEA00090BEC
(0000000002.700000) vcan0 132#7798C802207F0000
(0000000002.700000) vcan0 3E9#B7140000C8089A64
(0000000002.705000) vcan0 0E0#08490003FFFC0CBB
(0000000002.710000) vcan0 0D0#2A133338E3320EB2
(0000000002.710000) vcan0 0E0#07E4FFEDFFEC0D7E
(0000000002.715000) vcan0 0E0#0803000A000D0EF6
(0000000002.720000) vcan0 0D0#3093323473320FBE
(0000000002.720000) vcan0 0E0#0827FFF000030FB3
(0000000002.725000) vcan0 0E0#085000070003007E
(0000000002.730000) vcan0 0D0#2E73332E73320091
(0000000002.730000) vcan0 0E0#07F5FFD500040141
(0000000002.735000) vcan0 0E0#0847000600100262
(0000000002.740000) vcan0 0D0#2083322B133201A8
(0000000002.740000) vcan0 0E0#08400006FFF903FE
(0000000002.745000) vcan0 0E0#07E10002000D04B0
(0000000002.750000) vcan0 0D0#34F3322B1333027F
(0000000002.750000) vcan0 0E0#08290008FFFA05A5
(0000000002.755000) vcan0 0E0#0810FFF8FFFE06FE
(0000000002.760000) vcan0 0D0#308332322333036B
(0000000002.760000) vcan0 0E0#080BFFFF00020758
(0000000002.765000) vcan0 0E0#0807FFFBFFF7082F
(0000000002.770000) vcan0 0D0#35133322033304C7
(0000000002.770000) vcan0 0E0#07FEFFF9FFF209A8
(0000000002.775000) vcan0 0E0#07A6FFE200000AB6
(0000000002.780000) vcan0 0D0#33433331D3320526
(0000000002.780000) vcan0 0E0#07FBFFFDFFFE0BE8
(0000000002.785000) vcan0 0E0#0819000900020C47
(0000000002.790000) vcan0 0D0#2C23332D333306B7
(0000000002.790000) vcan0 0E0#082A002400090D27
(0000000002.795000) vcan0 0E0#0830FFE4FFFE0EC9
(0000000002.800000) vcan0 0D0#30B33336C33207DB
(0000000002.800000) vcan0 0E0#08750008FFF60F4B
(0000000002.800000) vcan0 132#8098BC02207F0000
(0000000002.800000) vcan0 3E9#FE140000DE089B35
(0000000002.805000) vcan0 0E0#07E40004FFFA00FB
(0000000002.810000) vcan0 0D0#31133334F33208BA
(0000000002.810000) vcan0 0E0#080200000003015F
(0000000002.815000) vcan0 0E0#0828000A0003026D
(0000000002.820000) vcan0 0D0#3BB3332F633309D0
(0000000002.820000) vcan0 0E0#0804000C000B0364
(0000000002.825000) vcan0 0E0#07EFFFFD000E04AE
(0000000002.830000) vcan0 0D0#3953333D03330AC7
(0000000002.830000) vcan0 0E0#07E4FFDFFFF80547
(0000000002.840000) vcan0 0D0#32F3322E93330B4A
(0000000002.840000) vcan0 0E0#08290005FFEF0705
(0000000002.845000) vcan0 0E0#07FF000100040817
(0000000002.850000) vcan0 0D0#2D93333523330C05
(0000000002.850000) vcan0 0E0#0815FFF90010092C
(0000000002.855000) vcan0 0E0#07A7FFEEFFFA0A0C
(0000000002.860000) vcan0 0D0#39A33335A3330D34
(0000000002.860000) vcan0 0E0#0801002800080B1F
(0000000002.865000) vcan0 0E0#07EAFFF1000D0C03
(0000000002.870000) vcan0 0D0#3823333323330E47
(0000000002.870000) vcan0 0E0#079EFFF5FFFC0D99
(0000000002.875000) vcan0 0E0#07C4FFFF00010E10
(0000000002.880000) vcan0 0D0#34733331D3330F0A
(0000000002.880000) vcan0 0E0#07F3FFF2FFF90F07
(0000000002.885000) vcan0 0E0#077B0016FFF3009E
(0000000002.890000) vcan0 0D0#35133333A33300FB
(0000000002.890000) vcan0 0E0#07A9000AFFEA01BE
(0000000002.895000) vcan0 0E0#077D0005FFFA02A4
(0000000002.900000) vcan0 0D0#3D533339233401E6
(0000000002.900000) vcan0 0E0#0778FFFFFFFA0360
(0000000002.900000) vcan0 132#8998B102207F0000
(0000000002.900000) vcan0 3E9#D2150000EA089CDA
(0000000002.905000) vcan0 0E0#07ABFFD4FFEE04E8
(0000000002.910000) vcan0 0D0#351334382333022C
(0000000002.910000) vcan0 0E0#07D2FFFFFFF005E2
(0000000002.915000) vcan0 0E0#07E50003FFF406E8
(0000000002.920000) vcan0 0D0#2E933333A33303F0
(0000000002.920000) vcan0 0E0#07C4000EFFFD07C2
(0000000002.925000) vcan0 0E0#0765001CFFF3085A
(0000000002.930000) vcan0 0D0#3D63333CB3330441
(0000000002.930000) vcan0 0E0#07A6003AFFFF0929
(0000000002.935000) vcan0 0E0#0784FFFE00110A1D
(0000000002.940000) vcan0 0D0#3893333EB334057A
(0000000002.940000) vcan0 0E0#0776FFF5FFF70B8B
(0000000002.945000) vcan0 0E0#0781FFF500010C82
(0000000002.950000) vcan0 0D0#40E33337633306AB
(0000000002.950000) vcan0 0E0#078D0019FFFD0DDD
(0000000002.955000) vcan0 0E0#0735000700120E47
(0000000002.960000) vcan0 0D0#37A3333D43340712
(0000000002.960000) vcan0 0E0#0774000200030F67
(0000000002.965000) vcan0 0E0#0761FFFA000A0020
(0000000002.970000) vcan0 0D0#3F33333C23340802
(0000000002.970000) vcan0 0E0#07540023000801B0
(0000000002.975000) vcan0 0E0#07B4FFD9FFFC0214
(0000000002.980000) vcan0 0D0#42133442133409F4
(0000000002.980000) vcan0 0E0#0795FFF5FFEA03FE
(0000000002.985000) vcan0 0E0#073A0006FFF40420
(0000000002.990000) vcan0 0D0#4413344333340AAD
(0000000002.990000) vcan0 0E0#0723FFF7FFFE051B
(0000000002.995000) vcan0 0E0#072E000A000E06F7
(0000000003.000000) vcan0 0D0#3F433442F3330B0D
(0000000003.000000) vcan0 0E0#0751000E0014077B
(0000000003.000000) vcan0 132#9298A502207F0000
(0000000003.000000) vcan0 3E9#5D1600000D099DA6
(0000000003.005000) vcan0 0E0#074B0010FFFA0835
(0000000003.010000) vcan0 0D0#4103343833340C1E
(0000000003.010000) vcan0 0E0#0708FFF8000F09A7
(0000000003.015000) vcan0 0E0#0749001D00080AB8
(0000000003.020000) vcan0 0D0#4903344703340D6A
(0000000003.020000) vcan0 0E0#0743FFEFFFF90B85
(0000000003.030000) vcan0 0D0#43C33341B3330EA6
(0000000003.030000) vcan0 0E0#074E0011FFFA0D82
(0000000003.035000) vcan0 0E0#075DFFFA00090E61
(0000000003.040000) vcan0 0D0#4703343FA3340FC6
(0000000003.040000) vcan0 0E0#0753FFFB000F0FD7
(0000000003.045000) vcan0 0E0#0733FFE7FFFF000F
(0000000003.050000) vcan0 0D0#4513343CB3340071
(0000000003.050000) vcan0 0E0#076D0000FFEF0191
(0000000003.055000) vcan0 0E0#07150010001802E0
(0000000003.060000) vcan0 0D0#45233443B333013A
(0000000003.060000) vcan0 0E0#07400013FFFB03CC
(0000000003.065000) vcan0 0E0#06D6FFE3000E0453
(0000000003.070000) vcan0 0D0#3E33344813350257
(0000000003.070000) vcan0 0E0#070C00000004050D
(0000000003.075000) vcan0 0E0#0700FFF4FFFE0664
(0000000003.080000) vcan0 0D0#43133444D33403B2
(0000000003.080000) vcan0 0E0#0761FFF300190712
(0000000003.085000) vcan0 0E0#06D8FFFEFFFC0852
(0000000003.090000) vcan0 0D0#4663344B53340411
(0000000003.090000) vcan0 0E0#06F0000C000A0932
(0000000003.095000) vcan0 0E0#072AFFF8FFF20AF3
(0000000003.100000) vcan0 0D0#4B233448B3340590
(0000000003.100000) vcan0 0E0#06B9FFEBFFFA0B08
(0000000003.100000) vcan0 132#9C989902207F0000
(0000000003.100000) vcan0 3E9#9A1700002D099E06
(0000000003.105000) vcan0 0E0#0720FFF5FFFD0CD7
(0000000003.110000) vcan0 0D0#50A33448A3340683
(0000000003.110000) vcan0 0E0#06C10009FFF80D9B
(0000000003.115000) vcan0 0E0#073DFFEA00010E66
(0000000003.120000) vcan0 0D0#41B3345003340727
(0000000003.120000) vcan0 0E0#06A8FFF9FFF10FA2
(0000000003.125000) vcan0 0E0#06E6FFF4000200BD
(0000000003.130000) vcan0 0D0#4F63344ED3340811
(0000000003.130000) vcan0 0E0#06D300010018015B
(0000000003.135000) vcan0 0E0#06E0FFF600060204
(0000000003.140000) vcan0 0D0#44733446B33409E1
(0000000003.140000) vcan0 0E0#06B1FFF6FFF50323
(0000000003.145000) vcan0 0E0#06DC0004FFEC04E5
(0000000003.150000) vcan0 0D0#4333344663340AA0
(0000000003.150000) vcan0 0E0#071E0009FFFE05BA
(0000000003.155000) vcan0 0E0#06830001FFF10602
(0000000003.160000) vcan0 0D0#48A3344C63340B87
(0000000003.160000) vcan0 0E0#0706FFF9FFFF07F3
(0000000003.165000) vcan0 0E0#06BF0003FFFB0872
(0000000003.170000) vcan0 0D0#41B3344EF3340CB0
(0000000003.170000) vcan0 0E0#069DFFF0000F0991
(0000000003.175000) vcan0 0E0#068F000D00050A82
(0000000003.180000) vcan0 0D0#46C3355473340D7B
(0000000003.180000) vcan0 0E0#0704000BFFED0BC9
(0000000003.185000) vcan0 0E0#06A90000FFFB0C21
(0000000003.190000) vcan0 0D0#4C53344503350E56
(0000000003.190000) vcan0 0E0#06C50009FFF50DA5
(0000000003.195000) vcan0 0E0#06A1FFEB000D0E6A
(0000000003.200000) vcan0 0D0#4C43344E93340FED
(0000000003.200000) vcan0 0E0#06CD000E00010FA0
(0000000003.200000) vcan0 132#A6988D02207F0000
(0000000003.200000) vcan0 3E9#4B1800002C099FCA
(0000000003.205000) vcan0 0E0#06750012FFFF0079
(0000000003.210000) vcan0 0D0#4B03354EE33400AA
(0000000003.210000) vcan0 0E0#06B7FFF1FFEA0173
(0000000003.215000) vcan0 0E0#06B3FFFAFFFB028F
(0000000003.220000) vcan0 0D0#4F53355113350113
(0000000003.220000) vcan0 0E0#0690FFDA000F03FB
(0000000003.225000) vcan0 0E0#06FE0003FFFB04F8
(0000000003.230000) vcan0 0D0#43833548C33402BB
(0000000003.230000) vcan0 0E0#06D4FFFA00010545
(0000000003.235000) vcan0 0E0#06BA0006FFF80690
(0000000003.240000) vcan0 0D0#4D033553B334034C
(0000000003.240000) vcan0 0E0#069A0005FFF607F0
(0000000003.245000) vcan0 0E0#0683FFF60008088B
(0000000003.250000) vcan0 0D0#4E233560033504A1
(0000000003.250000) vcan0 0E0#06A30010FFF8093F
(0000000003.255000) vcan0 0E0#0650FFF300040A3B
(0000000003.260000) vcan0 0D0#5203355683350550
(0000000003.260000) vcan0 0E0#06C20005FFEF0B80
(0000000003.265000) vcan0 0E0#06470000FFFC0C83
(0000000003.270000) vcan0 0D0#59D33458133506E1
(0000000003.270000) vcan0 0E0#0652002D00050D36
(0000000003.275000) vcan0 0E0#064E0007FFFE0E99
(0000000003.280000) vcan0 0D0#51933551F33407C9
(0000000003.280000) vcan0 0E0#068BFFD700060FEA
(0000000003.285000) vcan0 0E0#0675FFF0FFFD00C2
(0000000003.290000) vcan0 0D0#5BC33552933508F8
(0000000003.290000) vcan0 0E0#05F50001000001F3
(0000000003.295000) vcan0 0E0#06880043000902B3
(0000000003.300000) vcan0 0D0#53133555F334093B
(0000000003.300000) vcan0 0E0#06550003FFF5030C
(0000000003.300000) vcan0 132#B0988002207F0000
(0000000003.300000) vcan0 3E9#9C190000470990AF
(0000000003.305000) vcan0 0E0#065C000700020448
(0000000003.310000) vcan0 0D0#4E43355083340A9C
(0000000003.310000) vcan0 0E0#061CFFD700060543
(0000000003.315000) vcan0 0E0#0600FFFAFFF90635
(0000000003.320000) vcan0 0D0#5893355193350BC6
(0000000003.320000) vcan0 0E0#0665001BFFF30748
(0000000003.325000) vcan0 0E0#069BFFF7FFEE08E5
(0000000003.330000) vcan0 0D0#4D83355433350C2F
(0000000003.330000) vcan0 0E0#066DFFFBFFFD090F
(0000000003.335000) vcan0 0E0#063C0006000D0AA8
(0000000003.340000) vcan0 0D0#4D43364F23350D67
(0000000003.340000) vcan0 0E0#060B002C00120BA0
(0000000003.345000) vcan0 0E0#063BFFF8FFFD0C11
(0000000003.350000) vcan0 0D0#5233365443350E9A
(0000000003.350000) vcan0 0E0#065A0010000C0D0A
(0000000003.355000) vcan0 0E0#067B000AFFF50E27
(0000000003.360000) vcan0 0D0#5643355423350F6C
(0000000003.360000) vcan0 0E0#0618FFEFFFF40F13
(0000000003.365000) vcan0 0E0#05FD001F000A00F6
(0000000003.370000) vcan0 0D0#59433553A33500BF
(0000000003.370000) vcan0 0E0#060DFFEC0006012C
(0000000003.375000) vcan0 0E0#062CFFFCFFFF02BA
(0000000003.380000) vcan0 0D0#5CB3354D4335011A
(0000000003.380000) vcan0 0E0#05E1FFF1FFFA03D7
(0000000003.385000) vcan0 0E0#05E3FFF8000B04A9
(0000000003.390000) vcan0 0D0#58333551933502BB
(0000000003.390000) vcan0 0E0#05F5FFDFFFF905E3
(0000000003.395000) vcan0 0E0#05BD0009FFFC06FD
(0000000003.400000) vcan0 0D0#4B933558133503B1
(0000000003.400000) vcan0 0E0#05FBFFF6FFFB0789
(0000000003.400000) vcan0 132#BA987302207F0000
(0000000003.400000) vcan0 3E9#4A1A0000440991E1
(0000000003.405000) vcan0 0E0#05E9FFF700010819
(0000000003.410000) vcan0 0D0#5623355793350489
(0000000003.410000) vcan0 0E0#05D80007FFF809A5
(0000000003.415000) vcan0 0E0#05F7001B000A0AEC
(0000000003.420000) vcan0 0D0#5A93345AC33405A2
(0000000003.420000) vcan0 0E0#05C7000CFFFA0BF0
(0000000003.425000) vcan0 0E0#05E2002B00050C39
(0000000003.430000) vcan0 0D0#5153365AA3350688
(0000000003.430000) vcan0 0E0#0591FFEEFFF70D6B
(0000000003.435000) vcan0 0E0#0644000700080E46
(0000000003.440000) vcan0 0D0#62B3355CF33507D3
(0000000003.440000) vcan0 0E0#05F0FFF6FFFA0FED
(0000000003.445000) vcan0 0E0#061F001800000073
(0000000003.450000) vcan0 0D0#5AF3475413350854
(0000000003.450000) vcan0 0E0#06010008FFF8016A
(0000000003.455000) vcan0 0E0#06220018FFFE023F
(0000000003.460000) vcan0 0D0#5C2336529335090D
(0000000003.460000) vcan0 0E0#05E7FFE5000D0320
(0000000003.465000) vcan0 0E0#05C9000000000434
(0000000003.470000) vcan0 0D0#60A3486273350ABE
(0000000003.470000) vcan0 0E0#05A7FFF2000B055A
(0000000003.475000) vcan0 0E0#05F3000FFFFB06BE
(0000000003.480000) vcan0 0D0#5BD3355F03360B88
(0000000003.480000) vcan0 0E0#05CAFFFD000107FB
(0000000003.485000) vcan0 0E0#05E5FFE2FFFE08AF
(0000000003.490000) vcan0 0D0#5A93354FF3350CAF
(0000000003.490000) vcan0 0E0#059CFFF000060926
(0000000003.495000) vcan0 0E0#05B4FFF9FFFE0A94
(0000000003.500000) vcan0 0D0#61B3355853350D58
(0000000003.500000) vcan0 0E0#05F5FFFB00030B6F
(0000000003.500000) vcan0 132#C5986602207F0000
(0000000003.500000) vcan0 3E9#5B1B000062099251
(0000000003.505000) vcan0 0E0#0590FFD000080CE5
(0000000003.510000) vcan0 0D0#5FF3355AC3350E07
(0000000003.510000) vcan0 0E0#06020004000D0D63
(0000000003.515000) vcan0 0E0#054EFFEEFFF60E21
(0000000003.520000) vcan0 0D0#5DB3355923360F0E
(0000000003.520000) vcan0 0E0#0583FFEDFFFC0FFD
(0000000003.525000) vcan0 0E0#057BFFDA00000080
(0000000003.530000) vcan0 0D0#5C833660B3350008
(0000000003.530000) vcan0 0E0#0552FFF5000901CD
(0000000003.535000) vcan0 0E0#05A2FFFBFFF6029C
(0000000003.540000) vcan0 0D0#5EC336618335014A
(0000000003.540000) vcan0 0E0#05B3FFF2FFFA03A5
(0000000003.545000) vcan0 0E0#055D000CFFF40496
(0000000003.550000) vcan0 0D0#5BF3355BE335025F
(0000000003.550000) vcan0 0E0#05AB0020000105DB
(0000000003.555000) vcan0 0E0#057FFFEEFFF706FF
(0000000003.560000) vcan0 0D0#6253366023360308
(0000000003.560000) vcan0 0E0#05930005000C0775
(0000000003.565000) vcan0 0E0#05A5FFFE00020893
(0000000003.570000) vcan0 0D0#5B833669433604AF
(0000000003.570000) vcan0 0E0#055BFFE2FFFD0979
(0000000003.575000) vcan0 0E0#0584FFEAFFFB0A56
(0000000003.580000) vcan0 0D0#5D533660833505F0
(0000000003.580000) vcan0 0E0#05980000000D0BB6
(0000000003.585000) vcan0 0E0#05800007FFF10C94
(0000000003.590000) vcan0 0D0#67C3355EE33506A9
(0000000003.590000) vcan0 0E0#05450016FFF60D7B
(0000000003.595000) vcan0 0E0#058DFFFD00060E68
(0000000003.600000) vcan0 0D0#61C3366EE33507B6
(0000000003.600000) vcan0 0E0#05590008FFFB0FB1
(0000000003.600000) vcan0 132#CF985902207F0000
(0000000003.600000) vcan0 3E9#F11B00006D09936C
(0000000003.605000) vcan0 0E0#0552000A001700C2
(0000000003.610000) vcan0 0D0#5D1336627336085A
(0000000003.610000) vcan0 0E0#051EFFF5001301E4
(0000000003.615000) vcan0 0E0#05160025FFF6029B
(0000000003.620000) vcan0 0D0#5E23365E03360969
(0000000003.620000) vcan0 0E0#0572FFFB00060389
(0000000003.625000) vcan0 0E0#0523FFE800030426
(0000000003.630000) vcan0 0D0#64B3486303370A8E
(0000000003.630000) vcan0 0E0#05120012FFFA0521
(0000000003.635000) vcan0 0E0#052E000AFFFA068C
(0000000003.640000) vcan0 0D0#63F3356663360B9A
(0000000003.640000) vcan0 0E0#05070012000207FA
(0000000003.645000) vcan0 0E0#04FA0004FFFD089A
(0000000003.650000) vcan0 0D0#6693366243360C45
(0000000003.650000) vcan0 0E0#05280020FFFA094F
(0000000003.655000) vcan0 0E0#0571000C00070A2F
(0000000003.660000) vcan0 0D0#6163366783360D69
(0000000003.660000) vcan0 0E0#05430013000E0BD9
(0000000003.665000) vcan0 0E0#050DFFF8FFFC0C0F
(0000000003.670000) vcan0 0D0#5F133662D3360E5E
(0000000003.670000) vcan0 0E0#053C0022FFF60D7A
(0000000003.675000) vcan0 0E0#04B6FFF500090EF6
(0000000003.680000) vcan0 0D0#6513365D13360F5A
(0000000003.680000) vcan0 0E0#04F9FFFBFFF00F71
(0000000003.685000) vcan0 0E0#04F0FFDF000A00AC
(0000000003.690000) vcan0 0D0#67E3356E033600E4
(0000000003.690000) vcan0 0E0#053A000E000C01D9
(0000000003.695000) vcan0 0E0#04FDFFE60007028A
(0000000003.700000) vcan0 0D0#62C33670E336011B
(0000000003.700000) vcan0 0E0#050A0003FFFC037C
(0000000003.700000) vcan0 132#DA984B02207F0000
(0000000003.700000) vcan0 3E9#261D0000710994EC
(0000000003.705000) vcan0 0E0#05100001000D043A
(0000000003.710000) vcan0 0D0#6863365B73360268
(0000000003.710000) vcan0 0E0#04D4FFDF00010566
(0000000003.715000) vcan0 0E0#04AAFFE2FFF10662
(0000000003.720000) vcan0 0D0#6BD3366CD3360365
(0000000003.720000) vcan0 0E0#04EDFFE600010742
(0000000003.725000) vcan0 0E0#04E1FFFC000C0853
(0000000003.730000) vcan0 0D0#6DE3365D633604C3
(0000000003.730000) vcan0 0E0#04DB001200000972
(0000000003.735000) vcan0 0E0#04CFFFE400030AD8
(0000000003.740000) vcan0 0D0#5F633669C33605C3
(0000000003.740000) vcan0 0E0#049EFFFDFFFA0B19
(0000000003.745000) vcan0 0E0#04EAFFE3FFFF0C92
(0000000003.750000) vcan0 0D0#64033761B33606C1
(0000000003.750000) vcan0 0E0#0504000600060DA4
(0000000003.755000) vcan0 0E0#04DFFFE3FFFE0E9B
(0000000003.760000) vcan0 0D0#67B33674B336073B
(0000000003.760000) vcan0 0E0#04F40017FFF30F3A
(0000000003.765000) vcan0 0E0#04E4FFE6FFF20065
(0000000003.770000) vcan0 0D0#7343366423360861
(0000000003.770000) vcan0 0E0#04950014000301F4
(0000000003.775000) vcan0 0E0#0538FFE5FFF502AA
(0000000003.780000) vcan0 0D0#6863376A933609AF
(0000000003.780000) vcan0 0E0#0488FFFDFFF803F4
(0000000003.785000) vcan0 0E0#04AE001F000504F2
(0000000003.790000) vcan0 0D0#74D3366AF3360A2C
(0000000003.790000) vcan0 0E0#04FE000600020576
(0000000003.795000) vcan0 0E0#0431001EFFFD0692
(0000000003.800000) vcan0 0D0#97F43665F3360B49
(0000000003.800000) vcan0 0E0#04B9FFF9FFF20776
(0000000003.800000) vcan0 3E9#441E0000810995B8
(0000000003.805000) vcan0 0E0#047D002A00030849
(0000000003.810000) vcan0 0D0#64F3366AD3360CC3
(0000000003.810000) vcan0 0E0#04C4FFFFFFFF09A7
(0000000003.815000) vcan0 0E0#046DFFE6FFEB0AF9
(0000000003.820000) vcan0 0D0#6FF3366C23360D0A
(0000000003.820000) vcan0 0E0#047F0003FFFE0B7E
(0000000003.825000) vcan0 0E0#04BCFFF9FFF60CD7
(0000000003.830000) vcan0 0D0#77D3366EC3360ED9
(0000000003.830000) vcan0 0E0#04AC000A00000D1C
(0000000003.835000) vcan0 0E0#0458001C00050EDF
(0000000003.840000) vcan0 0D0#6A93366C03370F00
(0000000003.840000) vcan0 0E0#0485FFF7FFFC0FB7
(0000000003.845000) vcan0 0E0#0438FFEDFFF300E4
(0000000003.850000) vcan0 0D0#6EC3366883360054
(0000000003.850000) vcan0 0E0#04AC000200120130
(0000000003.855000) vcan0 0E0#044C000D00020213
(0000000003.860000) vcan0 0D0#6923376DE33601F6
(0000000003.860000) vcan0 0E0#0486FFF6000103AB
(0000000003.865000) vcan0 0E0#0431FFE4FFF9041F
(0000000003.870000) vcan0 0D0#6F73376FD3360249
(0000000003.870000) vcan0 0E0#03D80004FFF40527
(0000000003.875000) vcan0 0E0#0492FFE700060692
(0000000003.880000) vcan0 0D0#73B33672833603DE
(0000000003.880000) vcan0 0E0#043A000DFFFE0704
(0000000003.885000) vcan0 0E0#04BA0007FFF5082A
(0000000003.890000) vcan0 0D0#6CD3366BE3360464
(0000000003.890000) vcan0 0E0#0473000E00090911
(0000000003.895000) vcan0 0E0#04ADFFFA00030AFC
(0000000003.900000) vcan0 0D0#6DD3367493360521
(0000000003.900000) vcan0 0E0#0456FFEE00020BCA
(0000000003.900000) vcan0 132#F0983002207F0000
(0000000003.900000) vcan0 3E9#411F000086099667
(0000000003.905000) vcan0 0E0#041C001300000CB9
(0000000003.910000) vcan0 0D0#77B3367193370630
(0000000003.915000) vcan0 0E0#049B000BFFF40E94
(0000000003.920000) vcan0 0D0#76D3366AE336070F
(0000000003.920000) vcan0 0E0#0476FFF8FFFB0F20
(0000000003.925000) vcan0 0E0#03EC000D0007004E
(0000000003.930000) vcan0 0D0#72333779A3360890
(0000000003.930000) vcan0 0E0#03AC0005000601D3
(0000000003.935000) vcan0 0E0#03FF0016FFED0233
(0000000003.940000) vcan0 0D0#68A33775533709FE
(0000000003.940000) vcan0 0E0#03D6FFE8FFFA03D3
(0000000003.945000) vcan0 0E0#0455FFF3FFFA0467
(0000000003.950000) vcan0 0D0#71134A7F43370AC8
(0000000003.950000) vcan0 0E0#0440FFFEFFFD059B
(0000000003.955000) vcan0 0E0#043BFFFFFFFC06C1
(0000000003.960000) vcan0 0D0#6DA3377453370B6D
(0000000003.960000) vcan0 0E0#03F8001AFFFD07F3
(0000000003.965000) vcan0 0E0#03DF000F00070877
(0000000003.970000) vcan0 0D0#7353377133370CC9
(0000000003.970000) vcan0 0E0#042F0000FFFA0997
(0000000003.975000) vcan0 0E0#040DFFF3FFEC0A8E
(0000000003.980000) vcan0 0D0#6F43376643370D5B
(0000000003.980000) vcan0 0E0#03FE0000000F0B0C
(0000000003.985000) vcan0 0E0#0383FFF4FEF80C00
(0000000003.990000) vcan0 0D0#79433772D3360EE9
(0000000003.990000) vcan0 0E0#041CFFF6FFFD0DA4
(0000000003.995000) vcan0 0E0#0402FFFF00000EC2
(0000000004.000000) vcan0 0D0#6FA3376B43370FF6
(0000000004.000000) vcan0 0E0#03DEFFE600020F06
(0000000004.000000) vcan0 132#FC982202207F0000
(0000000004.000000) vcan0 3E9#082F000098099706
(0000000004.005000) vcan0 0E0#03D80011000600CC
(0000000004.010000) vcan0 0D0#74E33679F336005D
(0000000004.010000) vcan0 0E0#03840000FFFF01D8
(0000000004.020000) vcan0 0D0#6833377A133701AA
(0000000004.020000) vcan0 0E0#0343FFFBFFFE0396
(0000000004.025000) vcan0 0E0#8398FFDEFFF7046E
(0000000004.030000) vcan0 0D0#72733772533702F0
(0000000004.030000) vcan0 0E0#03A1FFF9000105E4
(0000000004.035000) vcan0 0E0#03A3001A000106F1
(0000000004.040000) vcan0 0D0#72E3367A7337039F
(0000000004.040000) vcan0 0E0#03EBFFFEFFF40771
(0000000004.045000) vcan0 0E0#03E5000B000308AE
(0000000004.050000) vcan0 0D0#6B733778B33704A3
(0000000004.050000) vcan0 0E0#03D3000A000209D7
(0000000004.055000) vcan0 0E0#03C9FFE400080A51
(0000000004.060000) vcan0 0D0#65633774633705C1
(0000000004.060000) vcan0 0E0#039CFFEDFFFA0B3E
(0000000004.065000) vcan0 0E0#03F4FFFF000D0C08
(0000000004.070000) vcan0 0D0#65B3377C0338066D
(0000000004.070000) vcan0 0E0#03EFFFF9FFFC0D08
(0000000004.075000) vcan0 0E0#03ADFFECFFFB0EFC
(0000000004.080000) vcan0 0D0#6E63367A53370779
(0000000004.080000) vcan0 0E0#039A000A00020F85
(0000000004.085000) vcan0 0E0#03CCFFE9000400F8
(0000000004.090000) vcan0 0D0#78A33779133708E8
(0000000004.090000) vcan0 0E0#031EFFF3FFF30106
(0000000004.095000) vcan0 0E0#038EFFFC000E022A
(0000000004.100000) vcan0 0D0#78533776E33709D9
(0000000004.100000) vcan0 0E0#0384FFE6FFE9038E
(0000000004.100000) vcan0 132#07991302207F0000
(0000000004.100000) vcan0 3E9#6C2000009A0998A3
(0000000004.105000) vcan0 0E0#035A001E0009045F
(0000000004.110000) vcan0 0D0#7D93377363370A29
(0000000004.110000) vcan0 0E0#03B9FFE8000305DA
(0000000004.115000) vcan0 0E0#03A5FFF4FFF6069C
(0000000004.120000) vcan0 0D0#74B3377693370BC8
(0000000004.120000) vcan0 0E0#0332FFFEFFED077B
(0000000004.125000) vcan0 0E0#036FFFFC0006083C
(0000000004.130000) vcan0 0D0#7773376FD3370CC8
(0000000004.130000) vcan0 0E0#03A9001B000609A8
(0000000004.135000) vcan0 0E0#03730000FFFE0A58
(0000000004.140000) vcan0 0D0#71333771E3360DE2
(0000000004.140000) vcan0 0E0#033E0001FFFA0BEC
(0000000004.145000) vcan0 0E0#0371001F00010C98
(0000000004.150000) vcan0 0D0#7D23377873370EFF
(0000000004.150000) vcan0 0E0#0383000100060DEC
(0000000004.155000) vcan0 0E0#0381000A00020E4C
(0000000004.160000) vcan0 0D0#7C33376E93370F77
(0000000004.160000) vcan0 0E0#037C000FFFFD0F48
(0000000004.165000) vcan0 0E0#0352FFF500010059
(0000000004.170000) vcan0 0D0#7183376D233700E4
(0000000004.170000) vcan0 0E0#0375001600050130
(0000000004.175000) vcan0 0E0#031FFFECFFFC0289
(0000000004.180000) vcan0 0D0#76633778033801CA
(0000000004.180000) vcan0 0E0#0313FFECFFFA032E
(0000000004.185000) vcan0 0E0#031F0007FFF7046B
(0000000004.190000) vcan0 0D0#72733779433702CE
(0000000004.190000) vcan0 0E0#0335001A00180549
(0000000004.195000) vcan0 0E0#0342FFE30004062E
(0000000004.200000) vcan0 0D0#77C3378113370351
(0000000004.200000) vcan0 0E0#035F000C00010763
(0000000004.200000) vcan0 132#12990502207F0000
(0000000004.200000) vcan0 3E9#232200009D09993A
(0000000004.205000) vcan0 0E0#03570001FFF708C4
(0000000004.210000) vcan0 0D0#7723377A4337044A
(0000000004.210000) vcan0 0E0#032B00040005091D
(0000000004.215000) vcan0 0E0#0300FFC900020A2A
(0000000004.220000) vcan0 0D0#8183377CC337050C
(0000000004.220000) vcan0 0E0#030BFFE1FFF70BAC
(0000000004.225000) vcan0 0E0#02F7FFFE00060C8C
(0000000004.230000) vcan0 0D0#7F233779D33706C0
(0000000004.230000) vcan0 0E0#030E0007000A0D1B
(0000000004.235000) vcan0 0E0#02F7FFFCFFF70E31
(0000000004.240000) vcan0 0E0#0329000B00040FFB
(0000000004.245000) vcan0 0E0#0300FFCBFFF900BD
(0000000004.250000) vcan0 0D0#80B33784133808A5
(0000000004.250000) vcan0 0E0#02D10025000C0123
(0000000004.255000) vcan0 0E0#02280004000802DE
(0000000004.260000) vcan0 0D0#7B93377D133809C3
(0000000004.260000) vcan0 0E0#0298000F00000383
(0000000004.265000) vcan0 0E0#030DFFFA00020410
(0000000004.270000) vcan0 0D0#7EB337B2F4370A88
(0000000004.270000) vcan0 0E0#02B30006FFF80592
(0000000004.275000) vcan0 0E0#02A5FFF9FFF9062D
(0000000004.280000) vcan0 0D0#7F63377643380B02
(0000000004.280000) vcan0 0E0#02E60025FFF607B0
(0000000004.285000) vcan0 0E0#02D4000CFFFC0832
(0000000004.290000) vcan0 0D0#7C63377673370C3D
(0000000004.290000) vcan0 0E0#02E1FFF200080945
(0000000004.295000) vcan0 0E0#02F9FFE3FFFD0A49
(0000000004.300000) vcan0 0D0#7F93377FA3370DB2
(0000000004.300000) vcan0 0E0#02F70004FFEE0B47
(0000000004.300000) vcan0 132#1E99F701207F0000
(0000000004.300000) vcan0 3E9#DA220000E3099A1A
(0000000004.305000) vcan0 0E0#029D001900030CE3
(0000000004.310000) vcan0 0D0#7DD3377823370E4B
(0000000004.310000) vcan0 0E0#032AFFEA00020D27
(0000000004.315000) vcan0 0E0#02C90011FFF90E2A
(0000000004.320000) vcan0 0D0#7763377D83370F81
(0000000004.320000) vcan0 0E0#02AE000DFFF00F61
(0000000004.325000) vcan0 0E0#030B0020000000A5
(0000000004.330000) vcan0 0D0#78D3377ED3370038
(0000000004.330000) vcan0 0E0#02B7001AFFE101B6
(0000000004.335000) vcan0 0E0#0254001B00080250
(0000000004.340000) vcan0 0D0#70D3377F9337010A
(0000000004.340000) vcan0 0E0#02D4FFEEFFEC036A
(0000000004.345000) vcan0 0E0#02F1FFF4000804B9
(0000000004.350000) vcan0 0D0#6E533786733802C9
(0000000004.350000) vcan0 0E0#02810005000A05EC
(0000000004.355000) vcan0 0E0#026FFFF5FFFC06E8
(0000000004.360000) vcan0 0D0#8163377EA33703ED
(0000000004.360000) vcan0 0E0#02570001FFF6076E
(0000000004.365000) vcan0 0E0#02A7FFFAFFF108E7
(0000000004.370000) vcan0 0D0#7F633773833804CA
(0000000004.370000) vcan0 0E0#0273FFFAFFF209CF
(0000000004.375000) vcan0 0E0#02670005FFF40A05
(0000000004.380000) vcan0 0D0#83933784C33705F0
(0000000004.380000) vcan0 0E0#0293FFF5000E0BDE
(0000000004.385000) vcan0 0E0#02080028FFFE0C31
(0000000004.390000) vcan0 0D0#7B033886C3370643
(0000000004.390000) vcan0 0E0#0287000D000A0D11
(0000000004.395000) vcan0 0E0#026E000400060ED4
(0000000004.400000) vcan0 0D0#7F13387F133807F7
(0000000004.400000) vcan0 0E0#023F0006FFFF0F16
(0000000004.400000) vcan0 132#2999E801207F0000
(0000000004.400000) vcan0 3E9#C1230000A8099B4D
(0000000004.405000) vcan0 0E0#0213FFED0002007F
(0000000004.410000) vcan0 0D0#7DF3377B3338082C
(0000000004.410000) vcan0 0E0#027DFFF3FFFB01B3
(0000000004.415000) vcan0 0E0#025E00050000025C
(0000000004.420000) vcan0 0D0#828337784338095A
(0000000004.420000) vcan0 0E0#022DFFE2FFFC038C
(0000000004.425000) vcan0 0E0#0247001C00010422
(0000000004.430000) vcan0 0D0#7A53388193380AE9
(0000000004.430000) vcan0 0E0#0279000EFFEC05E1
(0000000004.435000) vcan0 0E0#026EFFEC000C0666
(0000000004.440000) vcan0 0D0#8223387183370B96
(0000000004.440000) vcan0 0E0#0285000D00020715
(0000000004.445000) vcan0 0E0#02180016FFF60891
(0000000004.450000) vcan0 0D0#7CB3377CA3370CDA
(0000000004.450000) vcan0 0E0#0242FFF200010911
(0000000004.455000) vcan0 0E0#021B0011FFFD0A1B
(0000000004.460000) vcan0 0D0#7D13387AA3370D07
(0000000004.465000) vcan0 0E0#02560029000F0CCB
(0000000004.470000) vcan0 0D0#7C53388213380E34
(0000000004.470000) vcan0 0E0#02670009FFF70D50
(0000000004.480000) vcan0 0D0#83433884A3370FEA
(0000000004.480000) vcan0 0E0#01E8FFFEFFFD0FFF
(0000000004.485000) vcan0 0E0#01E6000AFFEE00C8
(0000000004.490000) vcan0 0D0#7A933880E33700BD
(0000000004.490000) vcan0 0E0#02020005FFEF01CB
(0000000004.495000) vcan0 0E0#0231FFF2FFF902CE
(0000000004.500000) vcan0 0D0#8253377CF3370153
(0000000004.500000) vcan0 0E0#0205FFF3FFFE038E
(0000000004.500000) vcan0 132#3599DA01207F0000
(0000000004.500000) vcan0 3E9#72240000AC099C47
(0000000004.505000) vcan0 0E0#0202FFEE000304AF
(0000000004.510000) vcan0 0D0#8283388533380220
(0000000004.510000) vcan0 0E0#021D000AFFF50570
(0000000004.515000) vcan0 0E0#020DFFECFFEF0658
(0000000004.520000) vcan0 0D0#8213387C0338036E
(0000000004.520000) vcan0 0E0#0180001DFFFC0797
(0000000004.525000) vcan0 0E0#0211FFFB000C08B8
(0000000004.530000) vcan0 0D0#8693377CE33704BB
(0000000004.530000) vcan0 0E0#01E5FFED000809EA
(0000000004.535000) vcan0 0E0#01B5FFF700020AD5
(0000000004.540000) vcan0 0D0#8673377D63380580
(0000000004.540000) vcan0 0E0#0214002000060B53
(0000000004.545000) vcan0 0E0#0194FFEB000C0CED
(0000000004.550000) vcan0 0D0#7C43387E033806CC
(0000000004.550000) vcan0 0E0#01EBFFFC00090DE9
(0000000004.555000) vcan0 0E0#0166FFF9FFFE0EE1
(0000000004.560000) vcan0 0D0#7A93378703380755
(0000000004.565000) vcan0 0E0#01AA001B000A005A
(0000000004.570000) vcan0 0D0#836338791338085B
(0000000004.570000) vcan0 0E0#019DFFEE000801DE
(0000000004.575000) vcan0 0E0#01ACFFF000050268
(0000000004.580000) vcan0 0D0#91933882F3370952
(0000000004.580000) vcan0 0E0#01CBFFF5FFF803C6
(0000000004.585000) vcan0 0E0#019CFFF3000504A0
(0000000004.590000) vcan0 0D0#8513388BF3370A04
(0000000004.590000) vcan0 0E0#01C100110007050B
(0000000004.595000) vcan0 0E0#01C4002600020695
(0000000004.600000) vcan0 0D0#82033881C3370B10
(0000000004.600000) vcan0 0E0#01BA001BFFFE07DC
(0000000004.600000) vcan0 132#4199CB01207F0000
(0000000004.600000) vcan0 3E9#C0250000BB099D43
(0000000004.605000) vcan0 0E0#01C7FFF600010846
(0000000004.610000) vcan0 0D0#7473388133380C7E
(0000000004.610000) vcan0 0E0#0193FFFF000A0995
(0000000004.615000) vcan0 0E0#017D000000060AD7
(0000000004.620000) vcan0 0D0#79D3377E73380DB7
(0000000004.620000) vcan0 0E0#016D001300030B20
(0000000004.625000) vcan0 0E0#01860003FFFE0C99
(0000000004.630000) vcan0 0D0#8663388543380E45
(0000000004.630000) vcan0 0E0#01A9001E00040D2D
(0000000004.635000) vcan0 0E0#01900023FFFC0EEC
(0000000004.640000) vcan0 0D0#8B93387CC3370FDE
(0000000004.640000) vcan0 0E0#0174FFEAFFF90F02
(0000000004.645000) vcan0 0E0#010E0011000A006C
(0000000004.650000) vcan0 0D0#84A3388103380087
(0000000004.650000) vcan0 0E0#0169FFFEFFFF4127
(0000000004.655000) vcan0 0E0#01BC0000FFF902C6
(0000000004.660000) vcan0 0D0#8753388773370133
(0000000004.660000) vcan0 0E0#015EFFFAFFF80359
(0000000004.665000) vcan0 0E0#013E0008FFF704D7
(0000000004.670000) vcan0 0D0#7B633885733802BE
(0000000004.670000) vcan0 0E0#0154001E0009057B
(0000000004.675000) vcan0 0E0#011A0003FFFB0691
(0000000004.680000) vcan0 0D0#8533388243380393
(0000000004.680000) vcan0 0E0#014400100002072E
(0000000004.685000) vcan0 0E0#010B000FFFFE08D6
(0000000004.690000) vcan0 0D0#85C338847338044D
(0000000004.690000) vcan0 0E0#012D000600130908
(0000000004.695000) vcan0 0E0#00F90006FFF50A7E
(0000000004.700000) vcan0 0D0#8523387BD337057D
(0000000004.700000) vcan0 0E0#0129001E000A0B2C
(0000000004.700000) vcan0 132#4D99BC01207F0000
(0000000004.700000) vcan0 3E9#CA260000C8099E02
(0000000004.705000) vcan0 0E0#0167FFFB00070C40
(0000000004.710000) vcan0 0D0#8443388813380608
(0000000004.710000) vcan0 0E0#0110000400070DB7
(0000000004.715000) vcan0 0E0#0134FFE1000C0EE4
(0000000004.720000) vcan0 0D0#82E33777D3370797
(0000000004.720000) vcan0 0E0#011CFFEF000B0FD7
(0000000004.725000) vcan0 0E0#0145FFFB000100CD
(0000000004.730000) vcan0 0D0#7E63387D83370821
(0000000004.730000) vcan0 0E0#00D100110003011B
(0000000004.735000) vcan0 0E0#00F0FFF8000102CF
(0000000004.740000) vcan0 0D0#8573387E53380915
(0000000004.740000) vcan0 0E0#01200002FFF203C9
(0000000004.745000) vcan0 0E0#00EA0007FFFA0438
(0000000004.750000) vcan0 0D0#82D33780E3370A38
(0000000004.750000) vcan0 0E0#0123FFE8000405AB
(0000000004.755000) vcan0 0E0#015700160005067D
(0000000004.760000) vcan0 0D0#8173387B63380BBD
(0000000004.760000) vcan0 0E0#014DFFF8FFF90798
(0000000004.765000) vcan0 0E0#0104001DFFF908E8
(0000000004.770000) vcan0 0D0#88433883E3370C6C
(0000000004.770000) vcan0 0E0#0119001B000C094C
(0000000004.780000) vcan0 0D0#7953388D23380D67
(0000000004.780000) vcan0 0E0#0136FFF700030BEE
(0000000004.785000) vcan0 0E0#0137FFFDFFF20CE0
(0000000004.790000) vcan0 0D0#8243388453380E81
(0000000004.790000) vcan0 0E0#00F9FFFD00020D3F
(0000000004.795000) vcan0 0E0#00FB0011FFF30EE2
(0000000004.800000) vcan0 0D0#86A3377FB3370F8A
(0000000004.800000) vcan0 0E0#00FF001400050F70
(0000000004.800000) vcan0 132#5899AE01207F0000
(0000000004.800000) vcan0 3E9#CF270000BD099FAC
(0000000004.805000) vcan0 0E0#011700280006002D
(0000000004.810000) vcan0 0D0#8653388A63380087
(0000000004.810000) vcan0 0E0#00790006FFFE019F
(0000000004.815000) vcan0 0E0#00D30008FFEF02BB
(0000000004.820000) vcan0 0D0#81D3377E03380118
(0000000004.820000) vcan0 0E0#010EFFFAFFFE03A8
(0000000004.825000) vcan0 0E0#00D8FFF7000104CB
(0000000004.830000) vcan0 0D0#80A3388513380282
(0000000004.830000) vcan0 0E0#008E000AFFF60560
(0000000004.835000) vcan0 0E0#005C000900080696
(0000000004.840000) vcan0 0D0#75833881933803A4
(0000000004.840000) vcan0 0E0#0054FFF0FFF90701
(0000000004.845000) vcan0 0E0#0090FFFAFFFF0841
(0000000004.850000) vcan0 0D0#7E333885333804E0
(0000000004.850000) vcan0 0E0#00B5FFF7FFFD09E0
(0000000004.855000) vcan0 0E0#00B00006FFEF0A14
(0000000004.860000) vcan0 0D0#85C33785A3380509
(0000000004.860000) vcan0 0E0#00D2FFF600080B7D
(0000000004.865000) vcan0 0E0#00D3000100040CCA
(0000000004.870000) vcan0 0D0#7EF3378363380647
(0000000004.870000) vcan0 0E0#008DFFF8FFEE0DAA
(0000000004.875000) vcan0 0E0#00BA000700040EAD
(0000000004.880000) vcan0 0D0#87F33790F3370798
(0000000004.880000) vcan0 0E0#005D0004000F0F93
(0000000004.885000) vcan0 0E0#008BFFD3FFFC00E2
(0000000004.890000) vcan0 0D0#80B33884133808D9
(0000000004.890000) vcan0 0E0#00B2FFF6000501EC
(0000000004.895000) vcan0 0E0#008C001E0009029B
(0000000004.900000) vcan0 0D0#83D33783E338095B
(0000000004.900000) vcan0 0E0#00F7FFF3000303A3
(0000000004.900000) vcan0 132#64999F01207F0000
(0000000004.905000) vcan0 0E0#000600130003047E
(0000000004.910000) vcan0 0D0#7EE3388493380ACF
(0000000004.910000) vcan0 0E0#00EBFFF800040529
(0000000004.915000) vcan0 0E0#009CFFFAFFF606FE
(0000000004.920000) vcan0 0D0#8863388043380BFE
(0000000004.920000) vcan0 0E0#0072FFF50003075D
(0000000004.925000) vcan0 0E0#008AFFF8FFE908F5
(0000000004.930000) vcan0 0D0#8033387D83380C1A
(0000000004.930000) vcan0 0E0#0041FFFA000009B1
(0000000004.935000) vcan0 0E0#008EFFFEFFFA0AC3
(0000000004.940000) vcan0 0D0#79E3378873380D2C
(0000000004.940000) vcan0 0E0#0065000500010BA3
(0000000004.945000) vcan0 0E0#0070FFE600130C35
(0000000004.950000) vcan0 0D0#81B3377C73380EB4
(0000000004.950000) vcan0 0E0#008EFFE900110D97
(0000000004.955000) vcan0 0E0#0022FFF000000EEB
(0000000004.960000) vcan0 0D0#8D03388593380FAD
(0000000004.960000) vcan0 0E0#0057DFFB000C0F88
(0000000004.965000) vcan0 0E0#00BB000DFFEE006C
(0000000004.970000) vcan0 0D0#7F933784A33700DB
(0000000004.970000) vcan0 0E0#003FFFFF000201FD
(0000000004.975000) vcan0 0E0#FFC6000DFFF80287
(0000000004.980000) vcan0 0D0#7B13387763380104
(0000000004.980000) vcan0 0E0#0015000A00000303
(0000000004.985000) vcan0 0E0#0023FFE400010458
(0000000004.990000) vcan0 0D0#8633387DD3380217
(0000000004.990000) vcan0 0E0#0000FFE600060579
(0000000004.995000) vcan0 0E0#FFFF00050006061C
(0000000005.000000) vcan0 0D0#82A3387DF3370344
(0000000005.000000) vcan0 0E0#004FFFFE00010796
(0000000005.000000) vcan0 132#70999001207F0000
(0000000005.000000) vcan0 3E9#3F290000B3099129
(0000000005.005000) vcan0 0E0#00330005000A08C7
(0000000005.010000) vcan0 0D0#8B53388D23380481
(0000000005.010000) vcan0 0E0#FFF9FFFE000A095E
(0000000005.015000) vcan0 0E0#000CFFE100040AA1
(0000000005.020000) vcan0 0D0#8C233881633805CC
(0000000005.020000) vcan0 0E0#0046FFE400020B0C
(0000000005.025000) vcan0 0E0#0006FFF800020CF8
(0000000005.030000) vcan0 0D0#8CB3378713380602
(0000000005.030000) vcan0 0E0#0050000CFFF80D69
(0000000005.035000) vcan0 0E0#000EFFF4FFF70E97
(0000000005.040000) vcan0 0D0#7F933888B338079D
(0000000005.040000) vcan0 0E0#FFC8000DFFE50F0A
(0000000005.045000) vcan0 0E0#FFF6FFFC0016008A
(0000000005.050000) vcan0 0D0#87433886A3380854
(0000000005.050000) vcan0 0E0#0006001AFFFC0159
(0000000005.055000) vcan0 0E0#FFCB000FFFFD0288
(0000000005.060000) vcan0 0D0#8173387F733809D1
(0000000005.060000) vcan0 0E0#FF96000D000A03AA
(0000000005.065000) vcan0 0E0#FFE40006FFFD042A
(0000000005.070000) vcan0 0D0#84A3388883380A94
(0000000005.070000) vcan0 0E0#0019000300090555
(0000000005.075000) vcan0 0E0#FFBA0014000306D6
(0000000005.080000) vcan0 0D0#7BF3388493370B51
(0000000005.080000) vcan0 0E0#FF9D0000FFFC0708
(0000000005.085000) vcan0 0E0#FFD00019FFFE0816
(0000000005.090000) vcan0 0D0#8453388673380C6B
(0000000005.090000) vcan0 0E0#FF86FFF2FFFD0930
(0000000005.095000) vcan0 0E0#FFE0FFEC00060A54
(0000000005.100000) vcan0 0E0#FF73FFBDFFF10B0E
(0000000005.100000) vcan0 132#7C9981011F7F0000
(0000000005.100000) vcan0 3E9#ED2A0000CF0992FA
(0000000005.105000) vcan0 0E0#FFF4FFEAFFFC0C4C
(0000000005.110000) vcan0 0D0#8743389213380E99
(0000000005.110000) vcan0 0E0#FFE40025FFFD0D2F
(0000000005.115000) vcan0 0E0#FFBE000D00050EAA
(0000000005.120000) vcan0 0D0#7E23388B03380FE6
(0000000005.120000) vcan0 0E0#FFCF0013000A0FEE
(0000000005.125000) vcan0 0E0#FFB7FFF9000A008C
(0000000005.130000) vcan0 0D0#8723388C633800DF
(0000000005.130000) vcan0 0E0#FFB70007001A01F1
(0000000005.135000) vcan0 0E0#FF9EFFF9FFF102B0
(0000000005.140000) vcan0 0D0#81D34B85833701E1
(0000000005.140000) vcan0 0E0#FF94FFF7FFF30346
(0000000005.145000) vcan0 0E0#FF6EFFF000030447
(0000000005.150000) vcan0 0D0#8143388553380267
(0000000005.150000) vcan0 0E0#FF56000AFFFC05B9
(0000000005.155000) vcan0 0E0#FF42000E000D0661
(0000000005.160000) vcan0 0D0#8143388AA338039A
(0000000005.160000) vcan0 0E0#FFE0FFF9FFFD0741
(0000000005.165000) vcan0 0E0#FFBE000D0007087C
(0000000005.170000) vcan0 0D0#84E33781C33704DC
(0000000005.170000) vcan0 0E0#FF8DFFDCFFEA0902
(0000000005.175000) vcan0 0E0#FF48001600030A2D
(0000000005.180000) vcan0 0D0#89C337897337057B
(0000000005.180000) vcan0 0E0#FFBBFFFCFFFD0B8A
(0000000005.185000) vcan0 0E0#FF6FFFFEFFF90C32
(0000000005.190000) vcan0 0D0#89C33785A3370636
(0000000005.190000) vcan0 0E0#FF480015FFF70D05
(0000000005.195000) vcan0 0E0#FF57FFF0FFFF0E7E
(0000000005.200000) vcan0 0D0#7CF338865339072B
(0000000005.200000) vcan0 0E0#FF3BFFEE000B0F05
(0000000005.200000) vcan0 132#889972011F7F0000
(0000000005.200000) vcan0 3E9#242C0000BD0993D5
(0000000005.205000) vcan0 0E0#FF9AFFE0FFF7001E
(0000000005.210000) vcan0 0D0#8533388603380872
(0000000005.210000) vcan0 0E0#FF4EFFEEFFF70117
(0000000005.215000) vcan0 0E0#FF02FFDC200B02BC
(0000000005.220000) vcan0 0D0#7B33387EA3380965
(0000000005.220000) vcan0 0E0#FF32FFE200180367
(0000000005.225000) vcan0 0E0#FF66FFFB00070446
(0000000005.230000) vcan0 0D0#8F83388EF3380AA8
(0000000005.230000) vcan0 0E0#FF43000D000A0543
(0000000005.235000) vcan0 0E0#FF27001A0000060A
(0000000005.240000) vcan0 0D0#82433882B3380B11
(0000000005.240000) vcan0 0E0#FF3F0011000707D6
(0000000005.245000) vcan0 0E0#FF3600070002080C
(0000000005.250000) vcan0 0D0#7E63387E53380CF4
(0000000005.250000) vcan0 0E0#FEEF000AFFFB0951
(0000000005.255000) vcan0 0E0#FF1FFFFFFFF90A8D
(0000000005.260000) vcan0 0D0#8743378163380D15
(0000000005.260000) vcan0 0E0#FED5FFEB00010B66
(0000000005.265000) vcan0 0E0#FEE4000100090CAA
(0000000005.270000) vcan0 0D0#8CE3377FF3370ECF
(0000000005.270000) vcan0 0E0#FF01000000030D2E
(0000000005.275000) vcan0 0E0#FF2F0021FFFF0EEE
(0000000005.280000) vcan0 0D0#88633884D3370FBF
(0000000005.280000) vcan0 0E0#FF1AFFEF00050F19
(0000000005.285000) vcan0 0E0#FEFAFFF6FFFC00F9
(0000000005.290000) vcan0 0D0#7E63387B033800C3
(0000000005.290000) vcan0 0E0#FED1FFF60007016E
(0000000005.295000) vcan0 0E0#FF0B0019001B02D9
(0000000005.300000) vcan0 0D0#87E33780333801E4
(0000000005.300000) vcan0 0E0#FF1BFFE6000B032D
(0000000005.300000) vcan0 132#939964011F7F0000
(0000000005.300000) vcan0 3E9#D22C0000B90994FA
(0000000005.305000) vcan0 0E0#FEF40003FFF404A6
(0000000005.310000) vcan0 0D0#7FB33886F33702EA
(0000000005.310000) vcan0 0E0#FEB90019FFF305C5
(0000000005.315000) vcan0 0E0#FED80011000D0643
(0000000005.320000) vcan0 0D0#7A33387C833803FD
(0000000005.320000) vcan0 0E0#FEEEFFD5FFF307E8
(0000000005.325000) vcan0 0E0#FEE00015FFF708B3
(0000000005.330000) vcan0 0D0#7B733882F3370473
(0000000005.330000) vcan0 0E0#FECF0008FFFE093F
(0000000005.335000) vcan0 0E0#FEB9000800010AB2
(0000000005.340000) vcan0 0D0#86033885D3370589
(0000000005.340000) vcan0 0E0#FEEF002B00020B46
(0000000005.345000) vcan0 0E0#FECFFFFDFFEA0C3D
(0000000005.350000) vcan0 0D0#8643388203380611
(0000000005.350000) vcan0 0E0#FE99FFE7FFFF0DA6
(0000000005.355000) vcan0 0E0#FEF4002DFFF10EAA
(0000000005.360000) vcan0 0D0#83934C8513380735
(0000000005.360000) vcan0 0E0#FEE50031000B0F3C
(0000000005.365000) vcan0 0E0#FEEEFFE4FFF9008B
(0000000005.370000) vcan0 0D0#83A3388683370876
(0000000005.370000) vcan0 0E0#FEFB0001000801B6
(0000000005.375000) vcan0 0E0#FED7FFFA000102A7
(0000000005.380000) vcan0 0D0#7D63387D633809E8
(0000000005.380000) vcan0 0E0#FED5FFD700080325
(0000000005.385000) vcan0 0E0#FF13001F000004DA
(0000000005.390000) vcan0 0D0#86D3378353380AA0
(0000000005.390000) vcan0 0E0#FE6A001E00050546
(0000000005.395000) vcan0 0E0#FEA900260003061D
(0000000005.400000) vcan0 0D0#8A13388903380B49
(0000000005.400000) vcan0 0E0#FE76FFCBFFF30786
(0000000005.400000) vcan0 132#9F9955011F7F0000
(0000000005.400000) vcan0 3E9#0C2D0000C20995AE
(0000000005.405000) vcan0 0E0#FE86FFDDFFEB0853
(0000000005.410000) vcan0 0D0#81633883B3380C10
(0000000005.410000) vcan0 0E0#FEAC0007000C0991
(0000000005.415000) vcan0 0E0#FEFAFFE9FFFA0AD3
(0000000005.420000) vcan0 0D0#7B03388143380D1B
(0000000005.420000) vcan0 0E0#FEB80002FFFC0B85
(0000000005.425000) vcan0 0E0#FE93000FFFFB0C88
(0000000005.430000) vcan0 0D0#7F53378F63380EA8
(0000000005.430000) vcan0 0E0#FE7C000B00110D5C
(0000000005.435000) vcan0 0E0#FE70002FFFFF0EC7
(0000000005.440000) vcan0 0D0#7DE3378B53380FF5
(0000000005.440000) vcan0 0E0#FE4A000D000C0F35
(0000000005.445000) vcan0 0E0#FE26FFF3FFFC00C1
(0000000005.450000) vcan0 0D0#841338866337001C
(0000000005.450000) vcan0 0E0#FEA30004000601C4
(0000000005.455000) vcan0 0E0#FE99FFFB000002A5
(0000000005.460000) vcan0 0D0#8053387D433701E0
(0000000005.460000) vcan0 0E0#FE72000D000803B2
(0000000005.465000) vcan0 0E0#FE26FFFB0002042A
(0000000005.470000) vcan0 0D0#7AA3387C233802A4
(0000000005.470000) vcan0 0E0#FE57FFF9001F05B5
(0000000005.475000) vcan0 0E0#FE7AFFF7000606A4
(0000000005.480000) vcan0 0D0#7F433880F3370352
(0000000005.480000) vcan0 0E0#FE820006000A07B4
(0000000005.485000) vcan0 0E0#FE51FFF3000308C5
(0000000005.490000) vcan0 0D0#8783377D0338045C
(0000000005.490000) vcan0 0E0#FE2A0012FFF8098F
(0000000005.495000) vcan0 0E0#FEDCFFD300050AE9
(0000000005.500000) vcan0 0D0#7D033878533805F7
(0000000005.500000) vcan0 0E0#FDDC000CFFF80BC7
(0000000005.500000) vcan0 132#AB9946011F7F0000
(0000000005.500000) vcan0 3E9#AA2E0000BE09961C
(0000000005.505000) vcan0 0E0#FE69002300120C14
(0000000005.510000) vcan0 0D0#7DE33880D3370639
(0000000005.510000) vcan0 0E0#FE4A0017FFEA0D7C
(0000000005.515000) vcan0 0E0#FE000014000A0E6F
(0000000005.520000) vcan0 0D0#7863387BA33807B3
(0000000005.520000) vcan0 0E0#FDFC0004000F0F12
(0000000005.525000) vcan0 0E0#FDC4FFE600040032
(0000000005.530000) vcan0 0D0#86833783E3370895
(0000000005.530000) vcan0 0E0#FE1F0001FFFA011F
(0000000005.535000) vcan0 0E0#FE090020FFF70249
(0000000005.540000) vcan0 0D0#8193377ED33709BB
(0000000005.540000) vcan0 0E0#FDFBFFFDFFFB03A0
(0000000005.545000) vcan0 0E0#FE32FFF5000204CE
(0000000005.550000) vcan0 0D0#7883377CA3370AC1
(0000000005.550000) vcan0 0E0#FDF2000DFFEE0556
(0000000005.555000) vcan0 0E0#FDE40001FFFB06EB
(0000000005.560000) vcan0 0D0#7A43387733380BB7
(0000000005.560000) vcan0 0E0#FE05FFF90004077D
(0000000005.565000) vcan0 0E0#FE060010FFF508A9
(0000000005.570000) vcan0 0D0#80C33683F3370C10
(0000000005.570000) vcan0 0E0#FD84000B00030925
(0000000005.575000) vcan0 0E0#FE23FFFDFFFF0A71
(0000000005.580000) vcan0 0D0#7B533879D3370D76
(0000000005.580000) vcan0 0E0#FDF50009FFF80B70
(0000000005.585000) vcan0 0E0#FDE4FFFBFFFE0CC2
(0000000005.590000) vcan0 0D0#82C3378D83380EE4
(0000000005.590000) vcan0 0E0#FDBA001800050DC4
(0000000005.595000) vcan0 0E0#FD9D0013FFFE0E40
(0000000005.600000) vcan0 0D0#81D3377BB3370F26
(0000000005.600000) vcan0 0E0#FDDD002400040FB8
(0000000005.600000) vcan0 132#B79938011F7F0000
(0000000005.600000) vcan0 3E9#A32F0000B80997CD
(0000000005.605000) vcan0 0E0#FDAAFFF8FFF10094
(0000000005.610000) vcan0 0D0#79333883D3370040
(0000000005.610000) vcan0 0E0#FE1BFFEB000D01B0
(0000000005.615000) vcan0 0E0#FDC0000300100243
(0000000005.620000) vcan0 0D0#7FC33778F33701E6
(0000000005.620000) vcan0 0E0#FDB4FFE0FFF903C7
(0000000005.625000) vcan0 0E0#FD86000E000704D6
(0000000005.630000) vcan0 0D0#81E3377CF337020F
(0000000005.630000) vcan0 0E0#FDA3FFFB00020533
(0000000005.635000) vcan0 0E0#FDBD0001FFF5060C
(0000000005.640000) vcan0 0D0#80033882F33703D0
(0000000005.640000) vcan0 0E0#FDF70019FFE6071E
(0000000005.645000) vcan0 0E0#FDBC000DFFF708A6
(0000000005.650000) vcan0 0D0#7C63377B534B04F6
(0000000005.650000) vcan0 0E0#FD36FFE2FFFD0933
(0000000005.655000) vcan0 0E0#FD85FFF000000A97
(0000000005.660000) vcan0 0D0#7783377B833705E2
(0000000005.660000) vcan0 0E0#FD99000C00030BB6
(0000000005.665000) vcan0 0E0#FD8D000800060CDB
(0000000005.670000) vcan0 0D0#7243377AF33706D4
(0000000005.670000) vcan0 0E0#FD19FFFFFFFD0DC0
(0000000005.675000) vcan0 0E0#FDB9001A00000E6F
(0000000005.680000) vcan0 0D0#84E3377E333707D5
(0000000005.680000) vcan0 0E0#FD9BFFEA00050F96
(0000000005.685000) vcan0 0E0#FD6FFFC4FFF30002
(0000000005.690000) vcan0 0D0#7C93377EF33708D9
(0000000005.690000) vcan0 0E0#FD440017000A01DC
(0000000005.695000) vcan0 0E0#FD540012FFEE0249
(0000000005.700000) vcan0 0D0#83733777933709B8
(0000000005.700000) vcan0 0E0#FD430000000C034D
(0000000005.700000) vcan0 132#C29929011F7F0000
(0000000005.700000) vcan0 3E9#753000009F099808
(0000000005.705000) vcan0 0E0#FD72FFF500070418
(0000000005.710000) vcan0 0D0#7BF33778E3370A64
(0000000005.710000) vcan0 0E0#FD6A0006000A05BB
(0000000005.715000) vcan0 0E0#FD19FFF400070607
(0000000005.720000) vcan0 0D0#75933771A3370B61
(0000000005.720000) vcan0 0E0#FD4FFFEB000B07ED
(0000000005.725000) vcan0 0E0#FD5EFFF2FFFD0879
(0000000005.730000) vcan0 0D0#7BC33777E3370C7E
(0000000005.730000) vcan0 0E0#FD340008FFFF0998
(0000000005.735000) vcan0 0E0#FD9AFFF000070ABF
(0000000005.740000) vcan0 0D0#76D3377643370DFC
(0000000005.740000) vcan0 0E0#FD99FFFEFFFD0BB3
(0000000005.745000) vcan0 0E0#FD6FFFFA000B0CB2
(0000000005.750000) vcan0 0D0#7733377E83370E62
(0000000005.750000) vcan0 0E0#FD33000000130D90
(0000000005.755000) vcan0 0E0#FD07FFE900020E73
(0000000005.760000) vcan0 0D0#7D63377BE3370FD0
(0000000005.760000) vcan0 0E0#FD12FFC600021F1B
(0000000005.765000) vcan0 0E0#FD9500130006005A
(0000000005.770000) vcan0 0D0#81733775C33700A8
(0000000005.770000) vcan0 0E0#FD5CFFF0FFFE01F3
(0000000005.775000) vcan0 0E0#FD57FFFB00050250
(0000000005.780000) vcan0 0D0#7313387243370196
(0000000005.780000) vcan0 0E0#FD240016FFEE0376
(0000000005.785000) vcan0 0E0#FD39001700150487
(0000000005.790000) vcan0 0D0#77C3377E43370292
(0000000005.790000) vcan0 0E0#FD0E000BFFF30573
(0000000005.795000) vcan0 0E0#FD0CFFD8FFF60668
(0000000005.800000) vcan0 0D0#76133877533803F0
(0000000005.800000) vcan0 0E0#FD09FFE0FFFA07B2
(0000000005.800000) vcan0 132#CE991B011F7F0000
(0000000005.800000) vcan0 3E9#C5310000AE099983
(0000000005.805000) vcan0 0E0#FCF90021FFFE0866
(0000000005.810000) vcan0 0D0#76E33776033804F6
(0000000005.810000) vcan0 0E0#FD0AFFE6FFFB09FB
(0000000005.815000) vcan0 0E0#FD200012FFF70A6A
(0000000005.820000) vcan0 0D0#7CA337739337057B
(0000000005.820000) vcan0 0E0#FD190007FFFB0B86
(0000000005.825000) vcan0 0E0#FD560001FFFB0C29
(0000000005.830000) vcan0 0D0#7F93377B133706DB
(0000000005.830000) vcan0 0E0#FD07FFF200020D57
(0000000005.835000) vcan0 0E0#FCD8000F00080EA0
(0000000005.840000) vcan0 0D0#78C33777533707BE
(0000000005.840000) vcan0 0E0#FCC9FFF6FFEF0F6E
(0000000005.845000) vcan0 0E0#FD08FFF0FFFC0037
(0000000005.850000) vcan0 0D0#783337734337089F
(0000000005.850000) vcan0 0E0#FD070003FFFF01A0
(0000000005.855000) vcan0 0E0#FCC40004001102A3
(0000000005.860000) vcan0 0D0#6E63377AF3360909
(0000000005.860000) vcan0 0E0#FC890003FFF203DF
(0000000005.865000) vcan0 0E0#FC97FFE90008048A
(0000000005.870000) vcan0 0D0#72C3367823370A1D
(0000000005.870000) vcan0 0E0#FCDB002000030509
(0000000005.875000) vcan0 0E0#FCDDFFDF000A06F8
(0000000005.880000) vcan0 0D0#73C3377703380BCC
(0000000005.880000) vcan0 0E0#FCDA0019FFFE07CC
(0000000005.885000) vcan0 0E0#FCEBFFEB000C087F
(0000000005.890000) vcan0 0D0#72D3377593370C8A
(0000000005.890000) vcan0 0E0#FCB4FFEDFFFA09D3
(0000000005.895000) vcan0 0E0#FC90FFF400130AB3
(0000000005.900000) vcan0 0D0#7B33376B23370DF8
(0000000005.900000) vcan0 0E0#FCE0000B000B0B65
(0000000005.900000) vcan0 132#D9990D011F7F0000
(0000000005.900000) vcan0 3E9#A1320000A5099A6B
(0000000005.905000) vcan0 0E0#FCB3001E00040CED
(0000000005.910000) vcan0 0D0#7C13377C93370E40
(0000000005.910000) vcan0 0E0#FCE9FFD900040D88
(0000000005.915000) vcan0 0E0#FC420024FFF70EB1
(0000000005.920000) vcan0 0D0#79C3367B23370FFB
(0000000005.920000) vcan0 0E0#FD29001B00080F01
(0000000005.925000) vcan0 0E0#FC5BFFFDFFE80032
(0000000005.930000) vcan0 0D0#71C3377323370064
(0000000005.930000) vcan0 0E0#FC770025000401D0
(0000000005.935000) vcan0 0E0#FC8CFFF6FFFC029C
(0000000005.940000) vcan0 0D0#75D33774C3370160
(0000000005.940000) vcan0 0E0#FC98FFF0000A03A0
(0000000005.945000) vcan0 0E0#FCC8FFFF0000041D
(0000000005.950000) vcan0 0D0#6DA3367EB33702D9
(0000000005.950000) vcan0 0E0#FC90FFE60010056A
(0000000005.955000) vcan0 0E0#FC76FFFB0001063A
(0000000005.960000) vcan0 0D0#7E13377C133703BB
(0000000005.960000) vcan0 0E0#FC4E0021FFF00761
(0000000005.965000) vcan0 0E0#FC50FFF5FFFB08E6
(0000000005.970000) vcan0 0D0#7F533769F33604CF
(0000000005.970000) vcan0 0E0#FC54FFFB00050908
(0000000005.975000) vcan0 0E0#FC44000500080AD4
(0000000005.980000) vcan0 0D0#75C3377713370502
(0000000005.980000) vcan0 0E0#FC4F001CFFF60B2E
(0000000005.985000) vcan0 0E0#FC84FFEBFFF50C4C
(0000000005.990000) vcan0 0D0#7133376E633706EC
(0000000005.990000) vcan0 0E0#FC87000800030D7C
(0000000005.995000) vcan0 0E0#FC81FFC2FFF80E45
(0000000006.000000) vcan0 0D0#71233773C3360733
(0000000006.000000) vcan0 0E0#FCA5000AFFFC0F8A
(0000000006.000000) vcan0 132#E499FE001F7F0000
(0000000006.000000) vcan0 3E9#12330000A0099B74
(0000000006.005000) vcan0 0E0#FC16FFE6001100D2
(0000000006.010000) vcan0 0D0#6B433777333708AB
(0000000006.010000) vcan0 0E0#FC81FFF20001016B
(0000000006.015000) vcan0 0E0#FC28FFF9FFE802E0
(0000000006.020000) vcan0 0D0#7463366F733709C8
(0000000006.020000) vcan0 0E0#FC290013000603B3
(0000000006.025000) vcan0 0E0#FC48FFEE001004B1
(0000000006.030000) vcan0 0D0#7C73377A93360A69
(0000000006.030000) vcan0 0E0#FC8B000BFFFB0597
(0000000006.035000) vcan0 0E0#FC390010000006C1
(0000000006.040000) vcan0 0D0#7213377253370B7D
(0000000006.040000) vcan0 0E0#FC9F0016FFFE07B7
(0000000006.045000) vcan0 0E0#FC11FFFEFFFF08FB
(0000000006.050000) vcan0 0D0#6B83367233370C96
(0000000006.050000) vcan0 0E0#FC3B001EFFED0960
(0000000006.055000) vcan0 0E0#FC5BFFF2FFF80A3C
(0000000006.060000) vcan0 0D0#7143377093360D5B
(0000000006.060000) vcan0 0E0#FC09FFF600040B3C
(0000000006.065000) vcan0 0E0#FC0E003900020C33
(0000000006.070000) vcan0 0D0#6D033767E3360EB7
(0000000006.070000) vcan0 0E0#FC130021000E0DBD
(0000000006.075000) vcan0 0E0#FBDC001800140E39
(0000000006.080000) vcan0 0D0#6623367803370F4C
(0000000006.080000) vcan0 0E0#FC39FFF0FFFD0FE7
(0000000006.085000) vcan0 0E0#FC0F0015FFF600B0
(0000000006.090000) vcan0 0D0#74B3367843370020
(0000000006.090000) vcan0 0E0#FC1400010009015D
(0000000006.095000) vcan0 0E0#FC03FFF8FFF202E3
(0000000006.100000) vcan0 0D0#6C9336789336018A
(0000000006.100000) vcan0 0E0#FBDAFFFAFFF7039E
(0000000006.100000) vcan0 132#F099F0001F7F0000
(0000000006.100000) vcan0 3E9#D23400008A099CA8
(0000000006.105000) vcan0 0E0#FC06FFCC0015046E
(0000000006.110000) vcan0 0D0#6CA33671D33602F0
(0000000006.110000) vcan0 0E0#FC3B001AFFFC054A
(0000000006.115000) vcan0 0E0#FC2B0005000C06D8
(0000000006.120000) vcan0 0D0#7553376AA3360336
(0000000006.120000) vcan0 0E0#FC57FFFEFFF5075B
(0000000006.125000) vcan0 0E0#FBDA0016000108DE
(0000000006.130000) vcan0 0D0#68D3367723370416
(0000000006.130000) vcan0 0E0#FBBF0012FFFC0961
(0000000006.135000) vcan0 0E0#FBE7FFDF00110A6A
(0000000006.140000) vcan0 0D0#67533769F33605B9
(0000000006.140000) vcan0 0E0#FBA1000200000B72
(0000000006.145000) vcan0 0E0#FBC9000000060CC1
(0000000006.150000) vcan0 0D0#7123377423370606
(0000000006.150000) vcan0 0E0#FBD6FFDE00050D47
(0000000006.155000) vcan0 0E0#FBFFFFF900080E81
(0000000006.160000) vcan0 0D0#67433668E3360778
(0000000006.160000) vcan0 0E0#FBB90007FFFB0FA9
(0000000006.165000) vcan0 0E0#FBD50008000D0054
(0000000006.170000) vcan0 0D0#7AC33670823608D5
(0000000006.170000) vcan0 0E0#FB73FFD3000B01B0
(0000000006.175000) vcan0 0E0#FB72FFEBFFFA0282
(0000000006.180000) vcan0 0D0#7143366A833609C3
(0000000006.180000) vcan0 0E0#FBC2FFF400090376
(0000000006.185000) vcan0 0E0#FB2DFFE8000504B8
(0000000006.190000) vcan0 0D0#6AE3366B03370AF1
(0000000006.190000) vcan0 0E0#FBB2FFF3FFE70517
(0000000006.195000) vcan0 0E0#FB94FFF200040680
(0000000006.200000) vcan0 0D0#6C03376C83360BF5
(0000000006.200000) vcan0 0E0#FBA4001F0011073F
(0000000006.200000) vcan0 132#FB99E3001F7F0000
(0000000006.200000) vcan0 3E9#0535000082099DB7
(0000000006.205000) vcan0 0E0#FBC3000000100832
(0000000006.210000) vcan0 0D0#6A633667D3360C39
(0000000006.210000) vcan0 0E0#FB3F0002000C0908
(0000000006.215000) vcan0 0E0#FBB4FFFA00050AE4
(0000000006.220000) vcan0 0D0#61C33665B3360DEE
(0000000006.220000) vcan0 0E0#FB7CFFFF00040B9C
(0000000006.225000) vcan0 0E0#FB77FFFCFFFE0C9B
(0000000006.230000) vcan0 0D0#6043366F23370E1B
(0000000006.230000) vcan0 0E0#FB02001EFFF60DD0
(0000000006.240000) vcan0 0D0#6C23365D93350FFD
(0000000006.240000) vcan0 0E0#FB71000100040F75
(0000000006.245000) vcan0 0E0#FB0E0020FFFF00D2
(0000000006.250000) vcan0 0D0#64033676333600F4
(0000000006.250000) vcan0 0E0#FBC30011FFFF0184
(0000000006.255000) vcan0 0E0#FB8CFFD80008026C
(0000000006.260000) vcan0 0D0#6CA3366FE33501FB
(0000000006.260000) vcan0 0E0#FB60FFF9FFEE039C
(0000000006.265000) vcan0 0E0#FBAF0002FFF4048B
(0000000006.270000) vcan0 0D0#6BF3366BC33602BC
(0000000006.270000) vcan0 0E0#FB21FFEBFFFB0513
(0000000006.275000) vcan0 0E0#FAF00001FFFB0674
(0000000006.280000) vcan0 0D0#6A03376B033603FA
(0000000006.280000) vcan0 0E0#FB24FFFB000C075A
(0000000006.285000) vcan0 0E0#FB4F0018FFEA080A
(0000000006.290000) vcan0 0D0#7173366783360431
(0000000006.290000) vcan0 0E0#FB9F00060003096D
(0000000006.295000) vcan0 0E0#FB2CFFEDFFEE0A5D
(0000000006.300000) vcan0 0D0#63F33577C3360574
(0000000006.300000) vcan0 0E0#FAB2FFF800010B27
(0000000006.300000) vcan0 132#069AD5001F7F0000
(0000000006.300000) vcan0 3E9#7736000067099EF1
(0000000006.305000) vcan0 0E0#FB570011FFFB0C99
(0000000006.310000) vcan0 0D0#61A3356573360647
(0000000006.310000) vcan0 0E0#FB67001300050D9C
(0000000006.315000) vcan0 0E0#FB29003200110E26
(0000000006.320000) vcan0 0D0#613336683336077F
(0000000006.320000) vcan0 0E0#FB2D0020FFF40F05
(0000000006.325000) vcan0 0E0#FB7F0010FFF90022
(0000000006.330000) vcan0 0D0#6C233661E335085B
(0000000006.330000) vcan0 0E0#FB34FFE40005015B
(0000000006.335000) vcan0 0E0#FB230009FFF1022D
(0000000006.340000) vcan0 0D0#62D3366343360988
(0000000006.340000) vcan0 0E0#FB2AFFF1000B03EF
(0000000006.345000) vcan0 0E0#FB0A0004FFFF04A7
(0000000006.350000) vcan0 0D0#71A3365D73360A2F
(0000000006.350000) vcan0 0E0#FB28FFF4FFF30548
(0000000006.355000) vcan0 0E0#FB65001EFFE70650
(0000000006.360000) vcan0 0D0#64A33567E3350BD9
(0000000006.360000) vcan0 0E0#FB1BFFF5000707D8
(0000000006.365000) vcan0 0E0#FB0BFFDAFFFD087B
(0000000006.370000) vcan0 0D0#62B3355DF3350C81
(0000000006.370000) vcan0 0E0#FB1F0011FFFC0953
(0000000006.375000) vcan0 0E0#FB14FFEDFFF10A7C
(0000000006.380000) vcan0 0D0#6013365DE3350D08
(0000000006.380000) vcan0 0E0#FADEFFF7000A0BB6
(0000000006.385000) vcan0 0E0#FABEFFFB00060C38
(0000000006.390000) vcan0 0D0#6883356663350E7E
(0000000006.390000) vcan0 0E0#FAB9001BFFFC0DC5
(0000000006.395000) vcan0 0E0#FACFFFEE00070E92
(0000000006.400000) vcan0 0D0#62D3366773490F28
(0000000006.400000) vcan0 0E0#FB04FFEB000A0F0A
(0000000006.400000) vcan0 132#119AC7001F7F0000
(0000000006.400000) vcan0 3E9#F73600006F099F41
(0000000006.405000) vcan0 0E0#FB00FFF2FFFB0030
(0000000006.410000) vcan0 0D0#5F53365B933600A6
(0000000006.410000) vcan0 0E0#FAD3FFE800100116
(0000000006.415000) vcan0 0E0#FB09FFEEFFF90229
(0000000006.420000) vcan0 0D0#62B3356853360198
(0000000006.420000) vcan0 0E0#FABFFFF200090367
(0000000006.425000) vcan0 0E0#FB290012FFEB0490
(0000000006.430000) vcan0 0D0#5E63356523360231
(0000000006.430000) vcan0 0E0#FAB3000C00060551
(0000000006.435000) vcan0 0E0#FA86FFDEFFF706E5
(0000000006.440000) vcan0 0D0#5E73355CA3350342
(0000000006.440000) vcan0 0E0#FA9DFFFA001107C5
(0000000006.445000) vcan0 0E0#FA9B00070001082D
(0000000006.450000) vcan0 0D0#59B3355F733604B9
(0000000006.450000) vcan0 0E0#FB0C0026FFFB09EF
(0000000006.455000) vcan0 0E0#FA8F0002FFEA0A03
(0000000006.460000) vcan0 0D0#5EB3355FD335050E
(0000000006.460000) vcan0 0E0#FA55000C00080B49
(0000000006.465000) vcan0 0E0#FB0D000F00020C71
(0000000006.470000) vcan0 0D0#57033654233606FE
(0000000006.470000) vcan0 0E0#FAB0FFFC00110D1F
(0000000006.475000) vcan0 0E0#FA8BFFEC00050E78
(0000000006.480000) vcan0 0D0#53933665F33507A0
(0000000006.480000) vcan0 0E0#FAD1FFF900040F1D
(0000000006.485000) vcan0 0E0#FACEFFF2FFF90086
(0000000006.490000) vcan0 0D0#5833365BB335085C
(0000000006.490000) vcan0 0E0#FA4E001D00070154
(0000000006.495000) vcan0 0E0#FA89FFFCFFFA0202
(0000000006.500000) vcan0 0D0#57F3355DA3350922
(0000000006.500000) vcan0 0E0#FA650005FFEF033D
(0000000006.500000) vcan0 132#1B9ABA001F7F0000
(0000000006.500000) vcan0 3E9#0C3900004C09901F
(0000000006.505000) vcan0 0E0#FA3A0020FFFC0416
(0000000006.510000) vcan0 0D0#5923365BB3350A2F
(0000000006.510000) vcan0 0E0#FA9B00290003058B
(0000000006.515000) vcan0 0E0#FA6D0000000A06B4
(0000000006.520000) vcan0 0D0#6023365893350BE1
(0000000006.520000) vcan0 0E0#FA76FFF3FFEC070B
(0000000006.525000) vcan0 0E0#FA8B0005FFF908A8
(0000000006.530000) vcan0 0D0#68E33559D3350CD3
(0000000006.530000) vcan0 0E0#FAC0FFFCFFF1095F
(0000000006.535000) vcan0 0E0#FA33FFFEFFF10A59
(0000000006.540000) vcan0 0D0#53333654B3350D68
(0000000006.540000) vcan0 0E0#FA940007FFFF0BCC
(0000000006.545000) vcan0 0E0#FA9A001A000E0CD6
(0000000006.550000) vcan0 0D0#6153365C93350EF7
(0000000006.550000) vcan0 0E0#FA72FFEB00010D06
(0000000006.555000) vcan0 0E0#FA6A0019FFF40EB4
(0000000006.560000) vcan0 0D0#5773355CC3350F01
(0000000006.560000) vcan0 0E0#FA6A0009000A0F8F
(0000000006.565000) vcan0 0E0#FA0B0008FFE40020
(0000000006.570000) vcan0 0D0#5993355D0335005E
(0000000006.570000) vcan0 0E0#7A2D0004FFFE0138
(0000000006.575000) vcan0 0E0#FAA3FFFDFFF902E5
(0000000006.580000) vcan0 0D0#5AD3355B8335095D
(0000000006.580000) vcan0 0E0#FA89FFE9000C03B0
(0000000006.585000) vcan0 0E0#FA7B0001FFEC0463
(0000000006.590000) vcan0 0D0#5C3336524335026E
(0000000006.590000) vcan0 0E0#FA4C000EFFF4050B
(0000000006.595000) vcan0 0E0#F9FFFFEE001806B6
(0000000006.600000) vcan0 0D0#5403355C533503CE
(0000000006.600000) vcan0 0E0#FA44FFD7000807CA
(0000000006.600000) vcan0 132#269AAD001F7F0000
(0000000006.600000) vcan0 3E9#6739000056099191
(0000000006.605000) vcan0 0E0#FA17FFF7FFE008B7
(0000000006.610000) vcan0 0D0#5E933554733504ED
(0000000006.610000) vcan0 0E0#FA20001AFFFB0928
(0000000006.615000) vcan0 0E0#FA4FFFEBFFF00A80
(0000000006.620000) vcan0 0D0#54933552F334057D
(0000000006.620000) vcan0 0E0#FA0D0015FFF40BB8
(0000000006.625000) vcan0 0E0#F9E2000800260C7A
(0000000006.630000) vcan0 0D0#4CB3355323350670
(0000000006.630000) vcan0 0E0#FA05FFFE00070DE6
(0000000006.635000) vcan0 0E0#F9F7001700060E2F
(0000000006.640000) vcan0 0D0#53B3345DF33507AF
(0000000006.640000) vcan0 0E0#FA04002200080F80
(0000000006.645000) vcan0 0E0#FA38000EFFF00026
(0000000006.650000) vcan0 0D0#5473354CF33408F4
(0000000006.650000) vcan0 0E0#FA51FFFB00020189
(0000000006.655000) vcan0 0E0#F9D80014FFFB0233
(0000000006.660000) vcan0 0D0#5C33355733350984
(0000000006.660000) vcan0 0E0#F9F7FFFA000C0327
(0000000006.665000) vcan0 0E0#F9BE0015FFF70466
(0000000006.670000) vcan0 0D0#51D3345483350AA5
(0000000006.670000) vcan0 0E0#FA3B000F0011050C
(0000000006.675000) vcan0 0E0#F9D3FFF3FFF20661
(0000000006.680000) vcan0 0D0#5063355613350BEC
(0000000006.680000) vcan0 0E0#FA0EFFE8000C0736
(0000000006.685000) vcan0 0E0#F9ACFFDFFFFF08CD
(0000000006.690000) vcan0 0D0#59E3345123350C26
(0000000006.690000) vcan0 0E0#F9DD00150004096D
(0000000006.695000) vcan0 0E0#FA0B0014000D0A4B
(0000000006.700000) vcan0 0D0#5893355533350D36
(0000000006.700000) vcan0 0E0#F9C9FFF7FFFD0B9F
(0000000006.700000) vcan0 132#309AA0001F7F0000
(0000000006.700000) vcan0 3E9#0E3A0000490992DC
(0000000006.705000) vcan0 0E0#F981000F00030C28
(0000000006.710000) vcan0 0D0#5163355773350E15
(0000000006.710000) vcan0 0E0#F9B6FFEEFFF70D9E
(0000000006.715000) vcan0 0E0#F9E7001700020E16
(0000000006.720000) vcan0 0D0#4CF3345A03350F8E
(0000000006.720000) vcan0 0E0#F9E6001100070F45
